,Vin,Vin_real,Vout,temp,VCC
0,0.0,0.0,0.0013773711,70.0,2.5
1,0.01,0.01,0.00139031814,70.0,2.5
2,0.02,0.02,0.00140039004,70.0,2.5
3,0.03,0.03,0.00141515721,70.0,2.5
4,0.04,0.04,0.00143561992,70.0,2.5
5,0.05,0.05,0.00145086985,70.0,2.5
6,0.06,0.06,0.00147801248,70.0,2.5
7,0.07,0.07,0.00151291676,70.0,2.5
8,0.08,0.08,0.00155669272,70.0,2.5
9,0.09,0.09,0.00160375985,70.0,2.5
10,0.1,0.1,0.0016690418,70.0,2.5
11,0.11,0.11,0.00174434848,70.0,2.5
12,0.12,0.12,0.00183897931,70.0,2.5
13,0.13,0.13,0.00195740683,70.0,2.5
14,0.14,0.14,0.0021037865,70.0,2.5
15,0.15,0.15,0.00227768571,70.0,2.5
16,0.16,0.16,0.00247812445,70.0,2.5
17,0.17,0.17,0.00272782714,70.0,2.5
18,0.18,0.18,0.00302727997,70.0,2.5
19,0.19,0.19,0.00338708845,70.0,2.5
20,0.2,0.2,0.00378517846,70.0,2.5
21,0.21,0.21,0.00425231884,70.0,2.5
22,0.22,0.22,0.00479239812,70.0,2.5
23,0.23,0.23,0.00540552492,70.0,2.5
24,0.24,0.24,0.00612814659,70.0,2.5
25,0.25,0.25,0.00691265756,70.0,2.5
26,0.26,0.26,0.00775780997,70.0,2.5
27,0.27,0.27,0.00867338602,70.0,2.5
28,0.28,0.28,0.00950440474,70.0,2.5
29,0.29,0.29,0.0104874195,70.0,2.5
30,0.3,0.3,0.0115567434,70.0,2.5
31,0.31,0.31,0.0126326476,70.0,2.5
32,0.32,0.32,0.0139072626,70.0,2.5
33,0.33,0.33,0.0151423552,70.0,2.5
34,0.34,0.34,0.0167133455,70.0,2.5
35,0.35000000000000003,0.35,0.0184866441,70.0,2.5
36,0.36,0.36,0.0205148849,70.0,2.5
37,0.37,0.37,0.0225784453,70.0,2.5
38,0.38,0.38,0.0255957945,70.0,2.5
39,0.39,0.39,0.0290124305,70.0,2.5
40,0.4,0.4,0.0332181089,70.0,2.5
41,0.41000000000000003,0.41,0.0381480156,70.0,2.5
42,0.42,0.42,0.0433361171,70.0,2.5
43,0.43,0.43,0.0489530682,70.0,2.5
44,0.44,0.44,0.0551894768,70.0,2.5
45,0.45,0.45,0.0619686814,70.0,2.5
46,0.46,0.46,0.0689864788,70.0,2.5
47,0.47000000000000003,0.47,0.0763736072,70.0,2.5
48,0.48,0.48,0.0842986439,70.0,2.5
49,0.49,0.49,0.0920848231,70.0,2.5
50,0.5,0.5,0.0975270853,70.0,2.5
51,0.51,0.51,0.100234378,70.0,2.5
52,0.52,0.52,0.102738844,70.0,2.5
53,0.53,0.53,0.105152487,70.0,2.5
54,0.54,0.54,0.108085626,70.0,2.5
55,0.55,0.55,0.111715796,70.0,2.5
56,0.56,0.56,0.116740627,70.0,2.5
57,0.5700000000000001,0.57,0.123458531,70.0,2.5
58,0.58,0.58,0.131791905,70.0,2.5
59,0.59,0.59,0.142049228,70.0,2.5
60,0.6,0.6,0.154022928,70.0,2.5
61,0.61,0.61,0.167419019,70.0,2.5
62,0.62,0.62,0.183287459,70.0,2.5
63,0.63,0.63,0.20232808,70.0,2.5
64,0.64,0.64,0.223693455,70.0,2.5
65,0.65,0.65,0.246985061,70.0,2.5
66,0.66,0.66,0.259078083,70.0,2.5
67,0.67,0.67,0.267251366,70.0,2.5
68,0.68,0.68,0.275170235,70.0,2.5
69,0.6900000000000001,0.69,0.28307097,70.0,2.5
70,0.7000000000000001,0.7,0.290875101,70.0,2.5
71,0.71,0.71,0.29889047,70.0,2.5
72,0.72,0.72,0.30700391,70.0,2.5
73,0.73,0.73,0.31500641,70.0,2.5
74,0.74,0.74,0.323149877,70.0,2.5
75,0.75,0.75,0.331295774,70.0,2.5
76,0.76,0.76,0.33945785,70.0,2.5
77,0.77,0.77,0.347654445,70.0,2.5
78,0.78,0.78,0.355876409,70.0,2.5
79,0.79,0.79,0.364137927,70.0,2.5
80,0.8,0.8,0.3723828,70.0,2.5
81,0.81,0.81,0.380614487,70.0,2.5
82,0.8200000000000001,0.82,0.38894706,70.0,2.5
83,0.8300000000000001,0.83,0.397310132,70.0,2.5
84,0.84,0.84,0.405663271,70.0,2.5
85,0.85,0.85,0.414023871,70.0,2.5
86,0.86,0.86,0.422389035,70.0,2.5
87,0.87,0.87,0.430823429,70.0,2.5
88,0.88,0.88,0.439220542,70.0,2.5
89,0.89,0.89,0.447676166,70.0,2.5
90,0.9,0.9,0.45615545,70.0,2.5
91,0.91,0.91,0.464593201,70.0,2.5
92,0.92,0.92,0.473072253,70.0,2.5
93,0.93,0.93,0.481465676,70.0,2.5
94,0.9400000000000001,0.94,0.48988569,70.0,2.5
95,0.9500000000000001,0.95,0.498353787,70.0,2.5
96,0.96,0.96,0.506909876,70.0,2.5
97,0.97,0.97,0.515415501,70.0,2.5
98,0.98,0.98,0.523953977,70.0,2.5
99,0.99,0.99,0.532373218,70.0,2.5
100,1.0,1.0,0.5407828,70.0,2.5
101,1.01,1.01,0.549122765,70.0,2.5
102,1.02,1.02,0.557295388,70.0,2.5
103,1.03,1.03,0.565435878,70.0,2.5
104,1.04,1.04,0.573052628,70.0,2.5
105,1.05,1.05,0.580258568,70.0,2.5
106,1.06,1.06,0.586622732,70.0,2.5
107,1.07,1.07,0.592357884,70.0,2.5
108,1.08,1.08,0.59664379,70.0,2.5
109,1.09,1.09,0.599750216,70.0,2.5
110,1.1,1.1,0.601977507,70.0,2.5
111,1.11,1.11,0.604178556,70.0,2.5
112,1.12,1.12,0.606062925,70.0,2.5
113,1.1300000000000001,1.13,0.60739301,70.0,2.5
114,1.1400000000000001,1.14,0.608019052,70.0,2.5
115,1.1500000000000001,1.15,0.60902235,70.0,2.5
116,1.16,1.16,0.609559054,70.0,2.5
117,1.17,1.17,0.610215504,70.0,2.5
118,1.18,1.18,0.610729686,70.0,2.5
119,1.19,1.19,0.611397714,70.0,2.5
120,1.2,1.2,0.611820488,70.0,2.5
121,1.21,1.21,0.612481132,70.0,2.5
122,1.22,1.22,0.612487297,70.0,2.5
123,1.23,1.23,0.612948697,70.0,2.5
124,1.24,1.24,0.613406279,70.0,2.5
125,1.25,1.25,0.61372635,70.0,2.5
126,1.26,1.26,0.614043905,70.0,2.5
127,1.27,1.27,0.613981316,70.0,2.5
128,1.28,1.28,0.613888639,70.0,2.5
129,1.29,1.29,0.614370549,70.0,2.5
130,1.3,1.3,0.614707266,70.0,2.5
131,1.31,1.31,0.614599932,70.0,2.5
132,1.32,1.32,0.614960532,70.0,2.5
