,Vin,Vin_real,Vout,temp
0,0.0,0.0,-0.00015787048,70.0
1,0.01,0.01,-0.000150625528,70.0
2,0.02,0.02,-0.000136678592,70.0
3,0.03,0.03,-0.000124790796,70.0
4,0.04,0.04,-0.000106642754,70.0
5,0.05,0.05,-8.84924114e-05,70.0
6,0.06,0.06,-6.12703483e-05,70.0
7,0.07,0.07,-2.64237149e-05,70.0
8,0.08,0.07999,1.4754487e-05,70.0
9,0.09,0.08999,6.73419359e-05,70.0
10,0.1,0.1,0.000128234967,70.0
11,0.11,0.11,0.000209461719,70.0
12,0.12,0.12,0.000309639464,70.0
13,0.13,0.13,0.000431545163,70.0
14,0.14,0.13999,0.000581013431,70.0
15,0.15,0.14999,0.000766971043,70.0
16,0.16,0.15999,0.000990379699,70.0
17,0.17,0.17,0.00126220691,70.0
18,0.18,0.18,0.00158411609,70.0
19,0.19,0.19,0.00196751418,70.0
20,0.2,0.2,0.0024118007,70.0
21,0.21,0.20999,0.00291211885,70.0
22,0.22,0.22,0.0034790381,70.0
23,0.23,0.23,0.00410486486,70.0
24,0.24,0.24,0.00476552905,70.0
25,0.25,0.25,0.0054569285,70.0
26,0.26,0.26,0.00615410505,70.0
27,0.27,0.27,0.00682188536,70.0
28,0.28,0.28,0.00749642286,70.0
29,0.29,0.29,0.00810518752,70.0
30,0.3,0.3,0.0087497053,70.0
31,0.31,0.31,0.00934791427,70.0
32,0.32,0.32,0.00989419151,70.0
33,0.33,0.33,0.0104885675,70.0
34,0.34,0.34,0.0110992625,70.0
35,0.35000000000000003,0.35,0.0117998625,70.0
36,0.36,0.36,0.0126505887,70.0
37,0.37,0.37,0.0136969909,70.0
38,0.38,0.38,0.0150630475,70.0
39,0.39,0.39,0.0169573529,70.0
40,0.4,0.4,0.0194234275,70.0
41,0.41000000000000003,0.41,0.022972007,70.0
42,0.42,0.42,0.0271868391,70.0
43,0.43,0.43,0.0320376189,70.0
44,0.44,0.44,0.0377928122,70.0
45,0.45,0.45,0.043949096,70.0
46,0.46,0.46,0.0508778496,70.0
47,0.47000000000000003,0.47,0.0581213388,70.0
48,0.48,0.48,0.0652894657,70.0
49,0.49,0.49,0.0687155391,70.0
50,0.5,0.5,0.0711014061,70.0
51,0.51,0.51,0.0737955943,70.0
52,0.52,0.52,0.0773632031,70.0
53,0.53,0.53,0.0826061881,70.0
54,0.54,0.54,0.0895392188,70.0
55,0.55,0.55,0.0980951418,70.0
56,0.56,0.56,0.107699427,70.0
57,0.5700000000000001,0.57,0.118284438,70.0
58,0.58,0.58,0.129902535,70.0
59,0.59,0.59,0.142408129,70.0
60,0.6,0.6,0.156041661,70.0
61,0.61,0.61,0.170883408,70.0
62,0.62,0.62,0.186509314,70.0
63,0.63,0.63,0.202873234,70.0
64,0.64,0.64,0.218875857,70.0
65,0.65,0.65,0.234216947,70.0
66,0.66,0.66,0.248800362,70.0
67,0.67,0.67,0.261721683,70.0
68,0.68,0.68,0.272094716,70.0
69,0.6900000000000001,0.69,0.281053069,70.0
70,0.7000000000000001,0.7,0.289555263,70.0
71,0.71,0.71,0.297861991,70.0
72,0.72,0.72,0.306130242,70.0
73,0.73,0.73,0.314305008,70.0
74,0.74,0.74,0.322534955,70.0
75,0.75,0.75,0.330774704,70.0
76,0.76,0.76,0.339025686,70.0
77,0.77,0.77,0.347284667,70.0
78,0.78,0.78,0.355571846,70.0
79,0.79,0.79,0.363858648,70.0
80,0.8,0.8,0.372173686,70.0
81,0.81,0.81,0.380502945,70.0
82,0.8200000000000001,0.82,0.388877683,70.0
83,0.8300000000000001,0.83,0.397260912,70.0
84,0.84,0.84,0.405666849,70.0
85,0.85,0.85,0.414062739,70.0
86,0.86,0.86,0.422502405,70.0
87,0.87,0.87,0.430952873,70.0
88,0.88,0.88,0.439394416,70.0
89,0.89,0.89,0.447858419,70.0
90,0.9,0.9,0.456343855,70.0
91,0.91,0.91,0.464856387,70.0
92,0.92,0.92,0.473347168,70.0
93,0.93,0.93,0.481832961,70.0
94,0.9400000000000001,0.94,0.490352595,70.0
95,0.9500000000000001,0.95,0.498895618,70.0
96,0.96,0.96,0.507455706,70.0
97,0.97,0.97,0.516000864,70.0
98,0.98,0.98,0.524537103,70.0
99,0.99,0.99,0.53303863,70.0
100,1.0,1.0,0.541446588,70.0
101,1.01,1.01,0.549900467,70.0
102,1.02,1.02,0.558231312,70.0
103,1.03,1.03,0.566465061,70.0
104,1.04,1.04,0.574470157,70.0
105,1.05,1.05,0.582148037,70.0
106,1.06,1.06,0.589143751,70.0
107,1.07,1.07,0.595419799,70.0
108,1.08,1.08,0.600828328,70.0
109,1.09,1.09,0.605060968,70.0
110,1.1,1.1,0.608630769,70.0
111,1.11,1.11,0.611520104,70.0
112,1.12,1.12,0.613937814,70.0
113,1.1300000000000001,1.13,0.615955327,70.0
114,1.1400000000000001,1.14,0.617422288,70.0
115,1.1500000000000001,1.15,0.618919012,70.0
116,1.16,1.16,0.620002927,70.0
117,1.17,1.17,0.620987061,70.0
118,1.18,1.18,0.621699861,70.0
119,1.19,1.19,0.622785408,70.0
120,1.2,1.2,0.623503942,70.0
121,1.21,1.21,0.624121005,70.0
122,1.22,1.22,0.6249852,70.0
123,1.23,1.23,0.625354403,70.0
124,1.24,1.24,0.625939831,70.0
125,1.25,1.25,0.626436597,70.0
126,1.26,1.26,0.62696696,70.0
127,1.27,1.27,0.627374765,70.0
128,1.28,1.28,0.627854569,70.0
129,1.29,1.29,0.628239468,70.0
130,1.3,1.3,0.628518561,70.0
131,1.31,1.31,0.628876041,70.0
132,1.32,1.32,0.629218562,70.0
