,Vin,Vin_real,Vout,temp
0,0.0,0.0,-0.000167811871,30.0
1,0.01,0.01,-0.000169380959,30.0
2,0.02,0.02,-0.000167887795,30.0
3,0.03,0.03,-0.000190013773,30.0
4,0.04,0.04,-0.00015561808,30.0
5,0.05,0.05,-0.000148067133,30.0
6,0.06,0.06,-0.00016649126,30.0
7,0.07,0.07,-0.000134619452,30.0
8,0.08,0.08,-0.000133179204,30.0
9,0.09,0.09,-0.000126306968,30.0
10,0.1,0.1,-0.000111218877,30.0
11,0.11,0.11,-9.45686004e-05,30.0
12,0.12,0.12,-7.4524769e-05,30.0
13,0.13,0.13,-4.62052647e-05,30.0
14,0.14,0.14,-1.03302116e-05,30.0
15,0.15,0.15,3.20374601e-05,30.0
16,0.16,0.16,9.07724202e-05,30.0
17,0.17,0.17,0.000172040586,30.0
18,0.18,0.18,0.000287087853,30.0
19,0.19,0.19,0.000455256334,30.0
20,0.2,0.2,0.000708084236,30.0
21,0.21,0.21,0.00105973016,30.0
22,0.22,0.22,0.00151438601,30.0
23,0.23,0.23,0.00208635993,30.0
24,0.24,0.24,0.00279587291,30.0
25,0.25,0.25,0.00368287917,30.0
26,0.26,0.26,0.00479795073,30.0
27,0.27,0.27,0.00613629751,30.0
28,0.28,0.28,0.00777329094,30.0
29,0.29,0.29,0.0096969995,30.0
30,0.3,0.3,0.0119221133,30.0
31,0.31,0.31,0.0144760499,30.0
32,0.32,0.32,0.0173461162,30.0
33,0.33,0.33,0.0205143576,30.0
34,0.34,0.34,0.0239962831,30.0
35,0.35000000000000003,0.35,0.027733779,30.0
36,0.36,0.36,0.0316265777,30.0
37,0.37,0.37,0.0355294398,30.0
38,0.38,0.38,0.0389708175,30.0
39,0.39,0.39,0.0415300296,30.0
40,0.4,0.4,0.0435656105,30.0
41,0.41000000000000003,0.41,0.0456324419,30.0
42,0.42,0.42,0.0477883019,30.0
43,0.43,0.43,0.0504041346,30.0
44,0.44,0.44,0.0532569986,30.0
45,0.45,0.45,0.0567340328,30.0
46,0.46,0.46,0.0607386348,30.0
47,0.47000000000000003,0.47,0.0652313657,30.0
48,0.48,0.48,0.0707364552,30.0
49,0.49,0.49,0.0766446184,30.0
50,0.5,0.5,0.0832781672,30.0
51,0.51,0.51,0.0906706783,30.0
52,0.52,0.52,0.0953799734,30.0
53,0.53,0.53,0.0974750277,30.0
54,0.54,0.54,0.0993743372,30.0
55,0.55,0.55,0.101088996,30.0
56,0.56,0.56,0.10284143,30.0
57,0.5700000000000001,0.57,0.104599867,30.0
58,0.58,0.58,0.106481205,30.0
59,0.59,0.59,0.108547215,30.0
60,0.6,0.6,0.111257621,30.0
61,0.61,0.61,0.116237055,30.0
62,0.62,0.62,0.124179619,30.0
63,0.63,0.63,0.134659529,30.0
64,0.64,0.64,0.14786638,30.0
65,0.65,0.65,0.165141303,30.0
66,0.66,0.66,0.191485517,30.0
67,0.67,0.67,0.227564366,30.0
68,0.68,0.68,0.247996487,30.0
69,0.6900000000000001,0.69,0.257212039,30.0
70,0.7000000000000001,0.7,0.265508189,30.0
71,0.71,0.71,0.27372146,30.0
72,0.72,0.72,0.281861257,30.0
73,0.73,0.73,0.29004273,30.0
74,0.74,0.74,0.29822304,30.0
75,0.75,0.75,0.306433824,30.0
76,0.76,0.76,0.314645698,30.0
77,0.77,0.77,0.32295082,30.0
78,0.78,0.78,0.331205861,30.0
79,0.79,0.79,0.33951636,30.0
80,0.8,0.8,0.347833482,30.0
81,0.81,0.81,0.356194215,30.0
82,0.8200000000000001,0.82,0.364626431,30.0
83,0.8300000000000001,0.83,0.352594162,30.0
84,0.84,0.84,0.381191649,30.0
85,0.85,0.85,0.378542994,30.0
86,0.86,0.86,0.390532663,30.0
87,0.87,0.87,0.403113359,30.0
88,0.88,0.88,0.415098436,30.0
89,0.89,0.89,0.423591242,30.0
90,0.9,0.9,0.432053241,30.0
91,0.91,0.91,0.440600957,30.0
92,0.92,0.92,0.449094218,30.0
93,0.93,0.93,0.457625519,30.0
94,0.9400000000000001,0.94,0.466153358,30.0
95,0.9500000000000001,0.95,0.474694308,30.0
96,0.96,0.96,0.483174828,30.0
97,0.97,0.97,0.491649734,30.0
98,0.98,0.98,0.500057712,30.0
99,0.99,0.99,0.508376142,30.0
100,1.0,1.0,0.516585287,30.0
101,1.01,1.01,0.52458426,30.0
102,1.02,1.02,0.532139435,30.0
103,1.03,1.03,0.539213937,30.0
104,1.04,1.04,0.545461787,30.0
105,1.05,1.05,0.550712889,30.0
106,1.06,1.06,0.555382228,30.0
107,1.07,1.07,0.559208886,30.0
108,1.08,1.08,0.56251056,30.0
109,1.09,1.09,0.565226793,30.0
110,1.1,1.1,0.567549886,30.0
111,1.11,1.11,0.569499008,30.0
112,1.12,1.12,0.571368687,30.0
113,1.1300000000000001,1.13,0.57302173,30.0
114,1.1400000000000001,1.14,0.574453893,30.0
115,1.1500000000000001,1.15,0.575815802,30.0
116,1.16,1.16,0.576978434,30.0
117,1.17,1.17,0.578077292,30.0
118,1.18,1.18,0.579048079,30.0
119,1.19,1.19,0.579951623,30.0
120,1.2,1.2,0.580953587,30.0
121,1.21,1.21,0.581769077,30.0
122,1.22,1.22,0.582433372,30.0
123,1.23,1.23,0.583147894,30.0
124,1.24,1.24,0.583705682,30.0
125,1.25,1.25,0.584547136,30.0
126,1.26,1.26,0.584854806,30.0
127,1.27,1.27,0.58545521,30.0
128,1.28,1.28,0.585928341,30.0
129,1.29,1.29,0.586169771,30.0
130,1.3,1.3,0.586831553,30.0
131,1.31,1.31,0.587165983,30.0
132,1.32,1.32,0.587319098,30.0
