,Vin,Vin_real,Vout,temp,VCC
0,0.0,0.0,0.0011920792,30.0,2.5
1,0.01,0.01,0.00119171448,30.0,2.5
2,0.02,0.02,0.00119550982,30.0,2.5
3,0.03,0.03,0.00119483492,30.0,2.5
4,0.04,0.04,0.00119833918,30.0,2.5
5,0.05,0.05,0.00119773194,30.0,2.5
6,0.06,0.06,0.0012043288,30.0,2.5
7,0.07,0.07,0.00120750884,30.0,2.5
8,0.08,0.08,0.00121535746,30.0,2.5
9,0.09,0.09,0.00122608009,30.0,2.5
10,0.1,0.1,0.00123541795,30.0,2.5
11,0.11,0.11,0.00125167113,30.0,2.5
12,0.12,0.12,0.00127202063,30.0,2.5
13,0.13,0.13,0.00129441944,30.0,2.5
14,0.14,0.14,0.00134085586,30.0,2.5
15,0.15,0.15,0.00138109994,30.0,2.5
16,0.16,0.16,0.00142647442,30.0,2.5
17,0.17,0.17,0.00148404167,30.0,2.5
18,0.18,0.18,0.00155805355,30.0,2.5
19,0.19,0.19,0.00164682225,30.0,2.5
20,0.2,0.2,0.00175439207,30.0,2.5
21,0.21,0.21,0.00189099944,30.0,2.5
22,0.22,0.22,0.0020504504,30.0,2.5
23,0.23,0.23,0.0022469592,30.0,2.5
24,0.24,0.24,0.00248828309,30.0,2.5
25,0.25,0.25,0.00278767909,30.0,2.5
26,0.26,0.26,0.00314782238,30.0,2.5
27,0.27,0.27,0.00358119427,30.0,2.5
28,0.28,0.28,0.00411505061,30.0,2.5
29,0.29,0.29,0.00473080842,30.0,2.5
30,0.3,0.3,0.00550232057,30.0,2.5
31,0.31,0.31,0.00646202831,30.0,2.5
32,0.32,0.32,0.00759491803,30.0,2.5
33,0.33,0.33,0.00888966307,30.0,2.5
34,0.34,0.34,0.0103427852,30.0,2.5
35,0.35000000000000003,0.35,0.0120617092,30.0,2.5
36,0.36,0.36,0.0140549921,30.0,2.5
37,0.37,0.37,0.0163354745,30.0,2.5
38,0.38,0.38,0.0189775531,30.0,2.5
39,0.39,0.39,0.0219313655,30.0,2.5
40,0.4,0.4,0.0253681832,30.0,2.5
41,0.41000000000000003,0.41,0.0291546556,30.0,2.5
42,0.42,0.42,0.0333907856,30.0,2.5
43,0.43,0.43,0.0381531845,30.0,2.5
44,0.44,0.44,0.0433626826,30.0,2.5
45,0.45,0.45,0.0489619737,30.0,2.5
46,0.46,0.46,0.0550777559,30.0,2.5
47,0.47000000000000003,0.47,0.0617322659,30.0,2.5
48,0.48,0.48,0.0686347053,30.0,2.5
49,0.49,0.49,0.0761964048,30.0,2.5
50,0.5,0.5,0.084309419,30.0,2.5
51,0.51,0.51,0.0932104435,30.0,2.5
52,0.52,0.52,0.102402193,30.0,2.5
53,0.53,0.53,0.109001563,30.0,2.5
54,0.54,0.54,0.112608909,30.0,2.5
55,0.55,0.55,0.115719148,30.0,2.5
56,0.56,0.56,0.118717831,30.0,2.5
57,0.5700000000000001,0.57,0.12190263,30.0,2.5
58,0.58,0.58,0.125434912,30.0,2.5
59,0.59,0.59,0.131081253,30.0,2.5
60,0.6,0.6,0.140820596,30.0,2.5
61,0.61,0.61,0.15333827,30.0,2.5
62,0.62,0.62,0.167046447,30.0,2.5
63,0.63,0.63,0.182504048,30.0,2.5
64,0.64,0.64,0.199444821,30.0,2.5
65,0.65,0.65,0.218745823,30.0,2.5
66,0.66,0.66,0.233928116,30.0,2.5
67,0.67,0.67,0.242830653,30.0,2.5
68,0.68,0.68,0.250890207,30.0,2.5
69,0.6900000000000001,0.69,0.258580104,30.0,2.5
70,0.7000000000000001,0.7,0.266356884,30.0,2.5
71,0.71,0.71,0.274154119,30.0,2.5
72,0.72,0.72,0.282015503,30.0,2.5
73,0.73,0.73,0.29002768,30.0,2.5
74,0.74,0.74,0.297994111,30.0,2.5
75,0.75,0.75,0.306071108,30.0,2.5
76,0.76,0.76,0.314231662,30.0,2.5
77,0.77,0.77,0.322409781,30.0,2.5
78,0.78,0.78,0.330612023,30.0,2.5
79,0.79,0.79,0.338861676,30.0,2.5
80,0.8,0.8,0.347116799,30.0,2.5
81,0.81,0.81,0.355412453,30.0,2.5
82,0.8200000000000001,0.82,0.363748406,30.0,2.5
83,0.8300000000000001,0.83,0.372099192,30.0,2.5
84,0.84,0.84,0.380476375,30.0,2.5
85,0.85,0.85,0.3888979,30.0,2.5
86,0.86,0.86,0.397307131,30.0,2.5
87,0.87,0.87,0.405706244,30.0,2.5
88,0.88,0.88,0.414115247,30.0,2.5
89,0.89,0.89,0.422586431,30.0,2.5
90,0.9,0.9,0.431134797,30.0,2.5
91,0.91,0.91,0.439625293,30.0,2.5
92,0.92,0.92,0.448148179,30.0,2.5
93,0.93,0.93,0.456657566,30.0,2.5
94,0.9400000000000001,0.94,0.465226444,30.0,2.5
95,0.9500000000000001,0.95,0.473776635,30.0,2.5
96,0.96,0.96,0.482357871,30.0,2.5
97,0.97,0.97,0.490914391,30.0,2.5
98,0.98,0.98,0.499471533,30.0,2.5
99,0.99,0.99,0.508048742,30.0,2.5
100,1.0,1.0,0.516482282,30.0,2.5
101,1.01,1.01,0.525020084,30.0,2.5
102,1.02,1.02,0.533453468,30.0,2.5
103,1.03,1.03,0.541806736,30.0,2.5
104,1.04,1.04,0.55003013,30.0,2.5
105,1.05,1.05,0.557949377,30.0,2.5
106,1.06,1.06,0.565406037,30.0,2.5
107,1.07,1.07,0.571984388,30.0,2.5
108,1.08,1.08,0.577359264,30.0,2.5
109,1.09,1.09,0.581694548,30.0,2.5
110,1.1,1.1,0.584826404,30.0,2.5
111,1.11,1.11,0.586737084,30.0,2.5
112,1.12,1.12,0.588486909,30.0,2.5
113,1.1300000000000001,1.13,0.589424265,30.0,2.5
114,1.1400000000000001,1.14,0.590439583,30.0,2.5
115,1.1500000000000001,1.15,0.59145387,30.0,2.5
116,1.16,1.16,0.591955503,30.0,2.5
117,1.17,1.17,0.592396945,30.0,2.5
118,1.18,1.18,0.593068058,30.0,2.5
119,1.19,1.19,0.593744428,30.0,2.5
120,1.2,1.2,0.594331525,30.0,2.5
121,1.21,1.21,0.594564374,30.0,2.5
122,1.22,1.22,0.594698405,30.0,2.5
123,1.23,1.23,0.595258685,30.0,2.5
124,1.24,1.24,0.595110773,30.0,2.5
125,1.25,1.25,0.59545269,30.0,2.5
126,1.26,1.26,0.595468875,30.0,2.5
127,1.27,1.27,0.595559461,30.0,2.5
128,1.28,1.28,0.595842937,30.0,2.5
129,1.29,1.29,0.59595577,30.0,2.5
130,1.3,1.3,0.596048186,30.0,2.5
131,1.31,1.31,0.596034291,30.0,2.5
132,1.32,1.32,0.596304962,30.0,2.5
