,Vin,Vin_real,Vout,temp,VCC
0,0.0,0.0,0.000892576663,-40.0,2.5
1,0.01,0.01,0.000891432354,-40.0,2.5
2,0.02,0.02,0.000891306487,-40.0,2.5
3,0.03,0.03,0.000892464832,-40.0,2.5
4,0.04,0.04,0.000889023393,-40.0,2.5
5,0.05,0.05,0.000887652432,-40.0,2.5
6,0.06,0.06,0.000891581922,-40.0,2.5
7,0.07,0.07,0.000893405958,-40.0,2.5
8,0.08,0.08,0.000894332358,-40.0,2.5
9,0.09,0.09,0.000892740267,-40.0,2.5
10,0.1,0.1,0.000894200968,-40.0,2.5
11,0.11,0.11,0.000894393566,-40.0,2.5
12,0.12,0.12,0.000896029147,-40.0,2.5
13,0.13,0.13,0.00089552798,-40.0,2.5
14,0.14,0.14,0.000895091472,-40.0,2.5
15,0.15,0.15,0.000899169379,-40.0,2.5
16,0.16,0.16,0.000898870474,-40.0,2.5
17,0.17,0.17,0.000904337521,-40.0,2.5
18,0.18,0.18,0.000904151596,-40.0,2.5
19,0.19,0.19,0.000903114286,-40.0,2.5
20,0.2,0.2,0.000908725378,-40.0,2.5
21,0.21,0.21,0.000910653652,-40.0,2.5
22,0.22,0.22,0.000916051898,-40.0,2.5
23,0.23,0.23,0.000919043713,-40.0,2.5
24,0.24,0.24,0.000926128393,-40.0,2.5
25,0.25,0.25,0.000936072578,-40.0,2.5
26,0.26,0.26,0.000948008545,-40.0,2.5
27,0.27,0.27,0.000958056507,-40.0,2.5
28,0.28,0.28,0.000973737651,-40.0,2.5
29,0.29,0.29,0.000990591406,-40.0,2.5
30,0.3,0.3,0.00101330914,-40.0,2.5
31,0.31,0.31,0.00105039343,-40.0,2.5
32,0.32,0.32,0.0011095224,-40.0,2.5
33,0.33,0.33,0.00122966166,-40.0,2.5
34,0.34,0.34,0.00143324731,-40.0,2.5
35,0.35000000000000003,0.35,0.00179718548,-40.0,2.5
36,0.36,0.36,0.00240964497,-40.0,2.5
37,0.37,0.37,0.00333962761,-40.0,2.5
38,0.38,0.38,0.00451339074,-40.0,2.5
39,0.39,0.39,0.00589174117,-40.0,2.5
40,0.4,0.4,0.00768365773,-40.0,2.5
41,0.41000000000000003,0.41,0.00976044956,-40.0,2.5
42,0.42,0.42,0.0121264461,-40.0,2.5
43,0.43,0.43,0.0149908707,-40.0,2.5
44,0.44,0.44,0.0182706577,-40.0,2.5
45,0.45,0.45,0.0220449868,-40.0,2.5
46,0.46,0.46,0.0263807328,-40.0,2.5
47,0.47000000000000003,0.47,0.03131774,-40.0,2.5
48,0.48,0.48,0.0369183565,-40.0,2.5
49,0.49,0.49,0.0432262255,-40.0,2.5
50,0.5,0.5,0.0502732534,-40.0,2.5
51,0.51,0.51,0.0579188389,-40.0,2.5
52,0.52,0.52,0.0663205215,-40.0,2.5
53,0.53,0.53,0.0754631539,-40.0,2.5
54,0.54,0.54,0.0854456805,-40.0,2.5
55,0.55,0.55,0.0963904612,-40.0,2.5
56,0.56,0.56,0.108219719,-40.0,2.5
57,0.5700000000000001,0.57,0.120710087,-40.0,2.5
58,0.58,0.58,0.131038174,-40.0,2.5
59,0.59,0.59,0.138759638,-40.0,2.5
60,0.6,0.6,0.146229754,-40.0,2.5
61,0.61,0.61,0.153532072,-40.0,2.5
62,0.62,0.62,0.160910021,-40.0,2.5
63,0.63,0.63,0.168241476,-40.0,2.5
64,0.64,0.64,0.175687197,-40.0,2.5
65,0.65,0.65,0.183116318,-40.0,2.5
66,0.66,0.66,0.190644018,-40.0,2.5
67,0.67,0.67,0.19849249,-40.0,2.5
68,0.68,0.68,0.206448044,-40.0,2.5
69,0.6900000000000001,0.69,0.214350475,-40.0,2.5
70,0.7000000000000001,0.7,0.222270233,-40.0,2.5
71,0.71,0.71,0.230083457,-40.0,2.5
72,0.72,0.72,0.238033349,-40.0,2.5
73,0.73,0.73,0.246002147,-40.0,2.5
74,0.74,0.74,0.253984366,-40.0,2.5
75,0.75,0.75,0.262037668,-40.0,2.5
76,0.76,0.76,0.270143633,-40.0,2.5
77,0.77,0.77,0.278283003,-40.0,2.5
78,0.78,0.78,0.286476861,-40.0,2.5
79,0.79,0.79,0.294695743,-40.0,2.5
80,0.8,0.8,0.303014594,-40.0,2.5
81,0.81,0.81,0.311261095,-40.0,2.5
82,0.8200000000000001,0.82,0.319587759,-40.0,2.5
83,0.8300000000000001,0.83,0.327964251,-40.0,2.5
84,0.84,0.84,0.336345228,-40.0,2.5
85,0.85,0.85,0.344780436,-40.0,2.5
86,0.86,0.86,0.35319929,-40.0,2.5
87,0.87,0.87,0.361656363,-40.0,2.5
88,0.88,0.88,0.370157144,-40.0,2.5
89,0.89,0.89,0.378651981,-40.0,2.5
90,0.9,0.9,0.387213416,-40.0,2.5
91,0.91,0.91,0.395765484,-40.0,2.5
92,0.92,0.92,0.404356603,-40.0,2.5
93,0.93,0.93,0.412953335,-40.0,2.5
94,0.9400000000000001,0.94,0.421561255,-40.0,2.5
95,0.9500000000000001,0.95,0.430121894,-40.0,2.5
96,0.96,0.96,0.438806905,-40.0,2.5
97,0.97,0.97,0.447413379,-40.0,2.5
98,0.98,0.98,0.456054623,-40.0,2.5
99,0.99,0.99,0.464748698,-40.0,2.5
100,1.0,1.0,0.473439138,-40.0,2.5
101,1.01,1.01,0.482125902,-40.0,2.5
102,1.02,1.02,0.490724459,-40.0,2.5
103,1.03,1.03,0.499451898,-40.0,2.5
104,1.04,1.04,0.508159812,-40.0,2.5
105,1.05,1.05,0.516899356,-40.0,2.5
106,1.06,1.06,0.525602396,-40.0,2.5
107,1.07,1.07,0.534269639,-40.0,2.5
108,1.08,1.08,0.542827487,-40.0,2.5
109,1.09,1.09,0.551313104,-40.0,2.5
110,1.1,1.1,0.55951493,-40.0,2.5
111,1.11,1.11,0.567159893,-40.0,2.5
112,1.12,1.12,0.574239841,-40.0,2.5
113,1.1300000000000001,1.13,0.579936606,-40.0,2.5
114,1.1400000000000001,1.14,0.583984304,-40.0,2.5
115,1.1500000000000001,1.15,0.586841016,-40.0,2.5
116,1.16,1.16,0.588830457,-40.0,2.5
117,1.17,1.17,0.590271238,-40.0,2.5
118,1.18,1.18,0.591412414,-40.0,2.5
119,1.19,1.19,0.592358131,-40.0,2.5
120,1.2,1.2,0.593131082,-40.0,2.5
121,1.21,1.21,0.593716065,-40.0,2.5
122,1.22,1.22,0.594320912,-40.0,2.5
123,1.23,1.23,0.594897559,-40.0,2.5
124,1.24,1.24,0.595173286,-40.0,2.5
125,1.25,1.25,0.595588118,-40.0,2.5
126,1.26,1.26,0.595757157,-40.0,2.5
127,1.27,1.27,0.595968847,-40.0,2.5
128,1.28,1.28,0.59629628,-40.0,2.5
129,1.29,1.29,0.596437177,-40.0,2.5
130,1.3,1.3,0.596604308,-40.0,2.5
131,1.31,1.31,0.596845498,-40.0,2.5
132,1.32,1.32,0.597023894,-40.0,2.5
