,Vin,Vin_real,Vout,temp,VCC
0,0.0,0.0,0.00139229658,70.0,2.5
1,0.01,0.01,0.00140317108,70.0,2.5
2,0.02,0.02,0.00141371376,70.0,2.5
3,0.03,0.03,0.00141686228,70.0,2.5
4,0.04,0.04,0.00144016125,70.0,2.5
5,0.05,0.05,0.00146015662,70.0,2.5
6,0.06,0.06,0.00148721343,70.0,2.5
7,0.07,0.07,0.00151505927,70.0,2.5
8,0.08,0.08,0.0015562783,70.0,2.5
9,0.09,0.09,0.00160368253,70.0,2.5
10,0.1,0.1,0.00166573544,70.0,2.5
11,0.11,0.11,0.00173945738,70.0,2.5
12,0.12,0.12,0.00183495663,70.0,2.5
13,0.13,0.13,0.00194485741,70.0,2.5
14,0.14,0.14,0.00208387742,70.0,2.5
15,0.15,0.15,0.00225419851,70.0,2.5
16,0.16,0.16,0.0024713992,70.0,2.5
17,0.17,0.17,0.00273879966,70.0,2.5
18,0.18,0.18,0.0030642186,70.0,2.5
19,0.19,0.19,0.00347478417,70.0,2.5
20,0.2,0.2,0.00398511282,70.0,2.5
21,0.21,0.21,0.00464735007,70.0,2.5
22,0.22,0.22,0.00550789254,70.0,2.5
23,0.23,0.23,0.00664129562,70.0,2.5
24,0.24,0.24,0.00814293775,70.0,2.5
25,0.25,0.25,0.00998809813,70.0,2.5
26,0.26,0.26,0.0121938489,70.0,2.5
27,0.27,0.27,0.0145729639,70.0,2.5
28,0.28,0.28,0.0173685729,70.0,2.5
29,0.29,0.29,0.0203447375,70.0,2.5
30,0.3,0.3,0.0236105027,70.0,2.5
31,0.31,0.31,0.027103467,70.0,2.5
32,0.32,0.32,0.0308703693,70.0,2.5
33,0.33,0.33,0.0347897387,70.0,2.5
34,0.34,0.34,0.0387627177,70.0,2.5
35,0.35000000000000003,0.35,0.0427627318,70.0,2.5
36,0.36,0.36,0.046452691,70.0,2.5
37,0.37,0.37,0.0498226377,70.0,2.5
38,0.38,0.38,0.0527700249,70.0,2.5
39,0.39,0.39,0.0555986761,70.0,2.5
40,0.4,0.4,0.058477107,70.0,2.5
41,0.41000000000000003,0.41,0.0616198613,70.0,2.5
42,0.42,0.42,0.065023722,70.0,2.5
43,0.43,0.43,0.0687837602,70.0,2.5
44,0.44,0.44,0.0727930324,70.0,2.5
45,0.45,0.45,0.0776424352,70.0,2.5
46,0.46,0.46,0.0825338943,70.0,2.5
47,0.47000000000000003,0.47,0.0878878551,70.0,2.5
48,0.48,0.48,0.0939070922,70.0,2.5
49,0.49,0.49,0.100424756,70.0,2.5
50,0.5,0.5,0.106308228,70.0,2.5
51,0.51,0.51,0.109250844,70.0,2.5
52,0.52,0.52,0.111316347,70.0,2.5
53,0.53,0.53,0.11324757,70.0,2.5
54,0.54,0.54,0.11505196,70.0,2.5
55,0.55,0.55,0.117057602,70.0,2.5
56,0.56,0.56,0.119389955,70.0,2.5
57,0.5700000000000001,0.57,0.12223844,70.0,2.5
58,0.58,0.58,0.12565294,70.0,2.5
59,0.59,0.59,0.130475231,70.0,2.5
60,0.6,0.6,0.136701565,70.0,2.5
61,0.61,0.61,0.144752135,70.0,2.5
62,0.62,0.62,0.155084294,70.0,2.5
63,0.63,0.63,0.169006218,70.0,2.5
64,0.64,0.64,0.188824098,70.0,2.5
65,0.65,0.65,0.216444002,70.0,2.5
66,0.66,0.66,0.247407567,70.0,2.5
67,0.67,0.67,0.26543772,70.0,2.5
68,0.68,0.68,0.273956624,70.0,2.5
69,0.6900000000000001,0.69,0.282040168,70.0,2.5
70,0.7000000000000001,0.7,0.290146611,70.0,2.5
71,0.71,0.71,0.298245275,70.0,2.5
72,0.72,0.72,0.306135376,70.0,2.5
73,0.73,0.73,0.31423035,70.0,2.5
74,0.74,0.74,0.322410932,70.0,2.5
75,0.75,0.75,0.330563954,70.0,2.5
76,0.76,0.76,0.338734638,70.0,2.5
77,0.77,0.77,0.346939544,70.0,2.5
78,0.78,0.78,0.355108158,70.0,2.5
79,0.79,0.79,0.363303829,70.0,2.5
80,0.8,0.8,0.371560708,70.0,2.5
81,0.81,0.81,0.379814587,70.0,2.5
82,0.8200000000000001,0.82,0.388125031,70.0,2.5
83,0.8300000000000001,0.83,0.396462927,70.0,2.5
84,0.84,0.84,0.404836153,70.0,2.5
85,0.85,0.85,0.413177345,70.0,2.5
86,0.86,0.86,0.421562848,70.0,2.5
87,0.87,0.87,0.429981541,70.0,2.5
88,0.88,0.88,0.438417231,70.0,2.5
89,0.89,0.89,0.446821306,70.0,2.5
90,0.9,0.9,0.455276326,70.0,2.5
91,0.91,0.91,0.463717595,70.0,2.5
92,0.92,0.92,0.47218199,70.0,2.5
93,0.93,0.93,0.480539303,70.0,2.5
94,0.9400000000000001,0.94,0.488978111,70.0,2.5
95,0.9500000000000001,0.95,0.49743645,70.0,2.5
96,0.96,0.96,0.505909828,70.0,2.5
97,0.97,0.97,0.514304282,70.0,2.5
98,0.98,0.98,0.5226839,70.0,2.5
99,0.99,0.99,0.531034146,70.0,2.5
100,1.0,1.0,0.539273829,70.0,2.5
101,1.01,1.01,0.547313657,70.0,2.5
102,1.02,1.02,0.554906502,70.0,2.5
103,1.03,1.03,0.56214628,70.0,2.5
104,1.04,1.04,0.568646557,70.0,2.5
105,1.05,1.05,0.574125493,70.0,2.5
106,1.06,1.06,0.578526194,70.0,2.5
107,1.07,1.07,0.581912659,70.0,2.5
108,1.08,1.08,0.584421151,70.0,2.5
109,1.09,1.09,0.586369767,70.0,2.5
110,1.1,1.1,0.587911503,70.0,2.5
111,1.11,1.11,0.589181511,70.0,2.5
112,1.12,1.12,0.59027366,70.0,2.5
113,1.1300000000000001,1.13,0.590995764,70.0,2.5
114,1.1400000000000001,1.14,0.591910652,70.0,2.5
115,1.1500000000000001,1.15,0.592602243,70.0,2.5
116,1.16,1.16,0.5931394,70.0,2.5
117,1.17,1.17,0.59366198,70.0,2.5
118,1.18,1.18,0.594059359,70.0,2.5
119,1.19,1.19,0.594443796,70.0,2.5
120,1.2,1.2,0.594866493,70.0,2.5
121,1.21,1.21,0.595221929,70.0,2.5
122,1.22,1.22,0.595504515,70.0,2.5
123,1.23,1.23,0.595894211,70.0,2.5
124,1.24,1.24,0.596023187,70.0,2.5
125,1.25,1.25,0.596246201,70.0,2.5
126,1.26,1.26,0.596373633,70.0,2.5
127,1.27,1.27,0.59645592,70.0,2.5
128,1.28,1.28,0.596627652,70.0,2.5
129,1.29,1.29,0.596906481,70.0,2.5
130,1.3,1.3,0.596941097,70.0,2.5
131,1.31,1.31,0.596822434,70.0,2.5
132,1.32,1.32,0.597091045,70.0,2.5
