,Vin,Vin_real,Vout,temp,VCC
0,1.32,1.32,0.619984367,70.0,2.5
1,1.31,1.31,0.620001831,70.0,2.5
2,1.3,1.3,0.619711613,70.0,2.5
3,1.29,1.29,0.619586227,70.0,2.5
4,1.28,1.28,0.619070717,70.0,2.5
5,1.27,1.27,0.619005512,70.0,2.5
6,1.26,1.26,0.618880586,70.0,2.5
7,1.25,1.25,0.618748479,70.0,2.5
8,1.24,1.24,0.618383385,70.0,2.5
9,1.23,1.23,0.618053149,70.0,2.5
10,1.22,1.22,0.617670202,70.0,2.5
11,1.21,1.21,0.617312236,70.0,2.5
12,1.2,1.2,0.617008918,70.0,2.5
13,1.19,1.19,0.616578094,70.0,2.5
14,1.18,1.18,0.616217914,70.0,2.5
15,1.17,1.17,0.61560183,70.0,2.5
16,1.16,1.16,0.614860513,70.0,2.5
17,1.15,1.15,0.613923377,70.0,2.5
18,1.14,1.14,0.613019463,70.0,2.5
19,1.13,1.13,0.611795384,70.0,2.5
20,1.1199999999999999,1.12,0.61017595,70.0,2.5
21,1.1099999999999999,1.11,0.608448211,70.0,2.5
22,1.0999999999999999,1.1,0.606108115,70.0,2.5
23,1.0899999999999999,1.09,0.603087384,70.0,2.5
24,1.0799999999999998,1.08,0.599087271,70.0,2.5
25,1.0699999999999998,1.07,0.594033688,70.0,2.5
26,1.0599999999999998,1.06,0.587778615,70.0,2.5
27,1.0499999999999998,1.05,0.580713868,70.0,2.5
28,1.0399999999999998,1.04,0.573057774,70.0,2.5
29,1.0299999999999998,1.03,0.565023131,70.0,2.5
30,1.0199999999999998,1.02,0.556818747,70.0,2.5
31,1.0099999999999998,1.01,0.548487444,70.0,2.5
32,0.9999999999999998,1.0,0.540038793,70.0,2.5
33,0.9899999999999998,0.99,0.531589478,70.0,2.5
34,0.9799999999999998,0.98,0.523084109,70.0,2.5
35,0.9699999999999998,0.97,0.514557285,70.0,2.5
36,0.9599999999999997,0.96,0.506023012,70.0,2.5
37,0.9499999999999997,0.95,0.497502855,70.0,2.5
38,0.9399999999999997,0.94,0.489020344,70.0,2.5
39,0.9299999999999997,0.93,0.480506538,70.0,2.5
40,0.9199999999999997,0.92,0.472000507,70.0,2.5
41,0.9099999999999997,0.91,0.463508939,70.0,2.5
42,0.8999999999999997,0.9,0.455025766,70.0,2.5
43,0.8899999999999997,0.89,0.446549665,70.0,2.5
44,0.8799999999999997,0.88,0.438088836,70.0,2.5
45,0.8699999999999997,0.87,0.429665015,70.0,2.5
46,0.8599999999999997,0.86,0.421289564,70.0,2.5
47,0.8499999999999996,0.85,0.412915756,70.0,2.5
48,0.8399999999999996,0.84,0.404513379,70.0,2.5
49,0.8299999999999996,0.83,0.396140297,70.0,2.5
50,0.8199999999999996,0.82,0.387826288,70.0,2.5
51,0.8099999999999996,0.81,0.379521959,70.0,2.5
52,0.7999999999999996,0.8,0.371195226,70.0,2.5
53,0.7899999999999996,0.79,0.362918544,70.0,2.5
54,0.7799999999999996,0.78,0.354675037,70.0,2.5
55,0.7699999999999996,0.77,0.346444802,70.0,2.5
56,0.7599999999999996,0.76,0.338213669,70.0,2.5
57,0.7499999999999996,0.75,0.330020235,70.0,2.5
58,0.7399999999999995,0.74,0.321839326,70.0,2.5
59,0.7299999999999995,0.73,0.313682493,70.0,2.5
60,0.7199999999999995,0.72,0.30555331,70.0,2.5
61,0.7099999999999995,0.71,0.297435484,70.0,2.5
62,0.6999999999999995,0.7,0.289519962,70.0,2.5
63,0.6899999999999995,0.69,0.281597833,70.0,2.5
64,0.6799999999999995,0.68,0.27370932,70.0,2.5
65,0.6699999999999995,0.67,0.265625506,70.0,2.5
66,0.6599999999999995,0.66,0.256005793,70.0,2.5
67,0.6499999999999995,0.65,0.237375497,70.0,2.5
68,0.6399999999999995,0.64,0.214710623,70.0,2.5
69,0.6299999999999994,0.63,0.19403842,70.0,2.5
70,0.6199999999999994,0.62,0.176959403,70.0,2.5
71,0.6099999999999994,0.61,0.162785851,70.0,2.5
72,0.5999999999999994,0.6,0.15106499,70.0,2.5
73,0.5899999999999994,0.59,0.141167412,70.0,2.5
74,0.5799999999999994,0.58,0.132581668,70.0,2.5
75,0.5699999999999994,0.57,0.125889013,70.0,2.5
76,0.5599999999999994,0.56,0.12067932,70.0,2.5
77,0.5499999999999994,0.55,0.116923497,70.0,2.5
78,0.5399999999999994,0.54,0.114102113,70.0,2.5
79,0.5299999999999994,0.53,0.111939189,70.0,2.5
80,0.5199999999999994,0.52,0.10992458,70.0,2.5
81,0.5099999999999993,0.51,0.107914491,70.0,2.5
82,0.49999999999999933,0.5,0.10461213,70.0,2.5
83,0.4899999999999993,0.49,0.0989899118,70.0,2.5
84,0.4799999999999993,0.48,0.0931434275,70.0,2.5
85,0.4699999999999993,0.47,0.0879214114,70.0,2.5
86,0.4599999999999993,0.46,0.0833825607,70.0,2.5
87,0.4499999999999993,0.45,0.0791604487,70.0,2.5
88,0.4399999999999993,0.44,0.0753324733,70.0,2.5
89,0.42999999999999927,0.43,0.0721664661,70.0,2.5
90,0.41999999999999926,0.42,0.0692923983,70.0,2.5
91,0.40999999999999925,0.41,0.0665429136,70.0,2.5
92,0.39999999999999925,0.4,0.0641063971,70.0,2.5
93,0.38999999999999924,0.39,0.0617341,70.0,2.5
94,0.3799999999999992,0.38,0.0584331631,70.0,2.5
95,0.3699999999999992,0.37,0.0543763869,70.0,2.5
96,0.3599999999999992,0.36,0.0499182642,70.0,2.5
97,0.3499999999999992,0.35,0.0452754937,70.0,2.5
98,0.3399999999999992,0.34,0.0407675091,70.0,2.5
99,0.3299999999999992,0.33,0.0363874204,70.0,2.5
100,0.3199999999999992,0.32,0.0322492163,70.0,2.5
101,0.30999999999999917,0.31,0.0283759943,70.0,2.5
102,0.29999999999999916,0.3,0.0247928361,70.0,2.5
103,0.28999999999999915,0.29,0.0214573944,70.0,2.5
104,0.27999999999999914,0.28,0.0184397286,70.0,2.5
105,0.26999999999999913,0.27,0.0157513788,70.0,2.5
106,0.2599999999999991,0.26,0.0133360634,70.0,2.5
107,0.2499999999999991,0.25,0.0112462235,70.0,2.5
108,0.2399999999999991,0.24,0.0094407204,70.0,2.5
109,0.2299999999999991,0.23,0.00790056964,70.0,2.5
110,0.21999999999999909,0.22,0.00660075379,70.0,2.5
111,0.20999999999999908,0.21,0.00551212117,70.0,2.5
112,0.19999999999999907,0.2,0.00461231348,70.0,2.5
113,0.18999999999999906,0.19,0.00389648333,70.0,2.5
114,0.17999999999999905,0.18,0.00333997162,70.0,2.5
115,0.16999999999999904,0.17,0.00291953043,70.0,2.5
116,0.15999999999999903,0.16,0.00259331303,70.0,2.5
117,0.14999999999999902,0.15,0.00234071057,70.0,2.5
118,0.13999999999999901,0.14,0.00214659026,70.0,2.5
119,0.129999999999999,0.13,0.00199407233,70.0,2.5
120,0.119999999999999,0.12,0.00186851618,70.0,2.5
121,0.10999999999999899,0.11,0.00177427998,70.0,2.5
122,0.09999999999999898,0.1,0.0016976815,70.0,2.5
123,0.08999999999999897,0.09,0.00163726671,70.0,2.5
124,0.07999999999999896,0.08,0.00158717002,70.0,2.5
125,0.06999999999999895,0.07,0.00154297781,70.0,2.5
126,0.05999999999999894,0.06,0.00150873623,70.0,2.5
127,0.049999999999998934,0.05,0.00148528309,70.0,2.5
128,0.039999999999998925,0.04,0.00146387166,70.0,2.5
129,0.029999999999998916,0.03,0.00144534895,70.0,2.5
130,0.019999999999998908,0.02,0.00143309659,70.0,2.5
131,0.009999999999998899,0.01,0.00142202789,70.0,2.5
132,-1.1102230246251565e-15,0.0,0.00140817239,70.0,2.5
