,Vin,Vin_real,Vout,temp,VCC
0,0.0,0.0,0.00120006036,30.0,2.5
1,0.01,0.01,0.00120593515,30.0,2.5
2,0.02,0.02,0.00120707463,30.0,2.5
3,0.03,0.03,0.00121217282,30.0,2.5
4,0.04,0.04,0.00121315237,30.0,2.5
5,0.05,0.05,0.00121240822,30.0,2.5
6,0.06,0.06,0.00121755174,30.0,2.5
7,0.07,0.07,0.00122286438,30.0,2.5
8,0.08,0.08,0.00122868372,30.0,2.5
9,0.09,0.09,0.00123879795,30.0,2.5
10,0.1,0.1,0.00125349839,30.0,2.5
11,0.11,0.11,0.00126753084,30.0,2.5
12,0.12,0.12,0.00129136642,30.0,2.5
13,0.13,0.13,0.00131785648,30.0,2.5
14,0.14,0.14,0.00135555192,30.0,2.5
15,0.15,0.15,0.00140944234,30.0,2.5
16,0.16,0.16,0.00148355431,30.0,2.5
17,0.17,0.17,0.00157677598,30.0,2.5
18,0.18,0.18,0.00171521751,30.0,2.5
19,0.19,0.19,0.00189853742,30.0,2.5
20,0.2,0.2,0.00213054578,30.0,2.5
21,0.21,0.21,0.00244137266,30.0,2.5
22,0.22,0.22,0.00284522195,30.0,2.5
23,0.23,0.23,0.00336241852,30.0,2.5
24,0.24,0.24,0.00403041114,30.0,2.5
25,0.25,0.25,0.00487083422,30.0,2.5
26,0.26,0.26,0.0059107059,30.0,2.5
27,0.27,0.27,0.00719064397,30.0,2.5
28,0.28,0.28,0.00875704571,30.0,2.5
29,0.29,0.29,0.0106195118,30.0,2.5
30,0.3,0.3,0.0127802176,30.0,2.5
31,0.31,0.31,0.0153030232,30.0,2.5
32,0.32,0.32,0.0181460335,30.0,2.5
33,0.33,0.33,0.0212542745,30.0,2.5
34,0.34,0.34,0.0247436078,30.0,2.5
35,0.35000000000000003,0.35,0.0285210419,30.0,2.5
36,0.36,0.36,0.0325407805,30.0,2.5
37,0.37,0.37,0.0367521894,30.0,2.5
38,0.38,0.38,0.0408566683,30.0,2.5
39,0.39,0.39,0.044381902,30.0,2.5
40,0.4,0.4,0.0469713966,30.0,2.5
41,0.41000000000000003,0.41,0.0491358044,30.0,2.5
42,0.42,0.42,0.0514386679,30.0,2.5
43,0.43,0.43,0.0540478979,30.0,2.5
44,0.44,0.44,0.0572198061,30.0,2.5
45,0.45,0.45,0.0606259273,30.0,2.5
46,0.46,0.46,0.0647149338,30.0,2.5
47,0.47000000000000003,0.47,0.0694299127,30.0,2.5
48,0.48,0.48,0.0744766811,30.0,2.5
49,0.49,0.49,0.0803211684,30.0,2.5
50,0.5,0.5,0.0870493862,30.0,2.5
51,0.51,0.51,0.0945862415,30.0,2.5
52,0.52,0.52,0.102463968,30.0,2.5
53,0.53,0.53,0.106864713,30.0,2.5
54,0.54,0.54,0.109717561,30.0,2.5
55,0.55,0.55,0.11228853,30.0,2.5
56,0.56,0.56,0.114816958,30.0,2.5
57,0.5700000000000001,0.57,0.117370481,30.0,2.5
58,0.58,0.58,0.120164959,30.0,2.5
59,0.59,0.59,0.124129078,30.0,2.5
60,0.6,0.6,0.131278236,30.0,2.5
61,0.61,0.61,0.141345953,30.0,2.5
62,0.62,0.62,0.153364312,30.0,2.5
63,0.63,0.63,0.166965328,30.0,2.5
64,0.64,0.64,0.182775224,30.0,2.5
65,0.65,0.65,0.201414962,30.0,2.5
66,0.66,0.66,0.225584225,30.0,2.5
67,0.67,0.67,0.24239727,30.0,2.5
68,0.68,0.68,0.25084381,30.0,2.5
69,0.6900000000000001,0.69,0.258579779,30.0,2.5
70,0.7000000000000001,0.7,0.266313542,30.0,2.5
71,0.71,0.71,0.274044629,30.0,2.5
72,0.72,0.72,0.28192665,30.0,2.5
73,0.73,0.73,0.289929981,30.0,2.5
74,0.74,0.74,0.297910484,30.0,2.5
75,0.75,0.75,0.306006601,30.0,2.5
76,0.76,0.76,0.314137597,30.0,2.5
77,0.77,0.77,0.322292291,30.0,2.5
78,0.78,0.78,0.330506663,30.0,2.5
79,0.79,0.79,0.338764245,30.0,2.5
80,0.8,0.8,0.347025461,30.0,2.5
81,0.81,0.81,0.355356654,30.0,2.5
82,0.8200000000000001,0.82,0.363702378,30.0,2.5
83,0.8300000000000001,0.83,0.372054949,30.0,2.5
84,0.84,0.84,0.380436031,30.0,2.5
85,0.85,0.85,0.388824073,30.0,2.5
86,0.86,0.86,0.397225969,30.0,2.5
87,0.87,0.87,0.405644571,30.0,2.5
88,0.88,0.88,0.414096517,30.0,2.5
89,0.89,0.89,0.422555879,30.0,2.5
90,0.9,0.9,0.431060168,30.0,2.5
91,0.91,0.91,0.439582883,30.0,2.5
92,0.92,0.92,0.448087742,30.0,2.5
93,0.93,0.93,0.456649813,30.0,2.5
94,0.9400000000000001,0.94,0.465213495,30.0,2.5
95,0.9500000000000001,0.95,0.473791205,30.0,2.5
96,0.96,0.96,0.482354713,30.0,2.5
97,0.97,0.97,0.490928695,30.0,2.5
98,0.98,0.98,0.499513061,30.0,2.5
99,0.99,0.99,0.508027465,30.0,2.5
100,1.0,1.0,0.516599745,30.0,2.5
101,1.01,1.01,0.525223093,30.0,2.5
102,1.02,1.02,0.533826285,30.0,2.5
103,1.03,1.03,0.542371999,30.0,2.5
104,1.04,1.04,0.550875827,30.0,2.5
105,1.05,1.05,0.559313609,30.0,2.5
106,1.06,1.06,0.567653352,30.0,2.5
107,1.07,1.07,0.575812188,30.0,2.5
108,1.08,1.08,0.583497756,30.0,2.5
109,1.09,1.09,0.590539087,30.0,2.5
110,1.1,1.1,0.59654226,30.0,2.5
111,1.11,1.11,0.601244326,30.0,2.5
112,1.12,1.12,0.604862578,30.0,2.5
113,1.1300000000000001,1.13,0.60736355,30.0,2.5
114,1.1400000000000001,1.14,0.60949973,30.0,2.5
115,1.1500000000000001,1.15,0.610964608,30.0,2.5
116,1.16,1.16,0.612207651,30.0,2.5
117,1.17,1.17,0.613204305,30.0,2.5
118,1.18,1.18,0.613991584,30.0,2.5
119,1.19,1.19,0.614755662,30.0,2.5
120,1.2,1.2,0.615545679,30.0,2.5
121,1.21,1.21,0.616057631,30.0,2.5
122,1.22,1.22,0.616599321,30.0,2.5
123,1.23,1.23,0.616991475,30.0,2.5
124,1.24,1.24,0.617339019,30.0,2.5
125,1.25,1.25,0.61780712,30.0,2.5
126,1.26,1.26,0.61803977,30.0,2.5
127,1.27,1.27,0.618468736,30.0,2.5
128,1.28,1.28,0.618624659,30.0,2.5
129,1.29,1.29,0.618686411,30.0,2.5
130,1.3,1.3,0.619025105,30.0,2.5
131,1.31,1.31,0.619045597,30.0,2.5
132,1.32,1.32,0.619120043,30.0,2.5
