,Vin,Vin_real,Vout,temp,VCC
0,0.0,0.0,0.000907600629,-40.0,2.5
1,0.01,0.01,0.000902363686,-40.0,2.5
2,0.02,0.02,0.000900514799,-40.0,2.5
3,0.03,0.03,0.000896129012,-40.0,2.5
4,0.04,0.04,0.000893093247,-40.0,2.5
5,0.05,0.05,0.000894512069,-40.0,2.5
6,0.06,0.06,0.000900338539,-40.0,2.5
7,0.07,0.07,0.000895104128,-40.0,2.5
8,0.08,0.08,0.000898517724,-40.0,2.5
9,0.09,0.09,0.000897444748,-40.0,2.5
10,0.1,0.1,0.000903703123,-40.0,2.5
11,0.11,0.11,0.000901117442,-40.0,2.5
12,0.12,0.12,0.000898988287,-40.0,2.5
13,0.13,0.13,0.00089956723,-40.0,2.5
14,0.14,0.14,0.000901742865,-40.0,2.5
15,0.15,0.15,0.000903711867,-40.0,2.5
16,0.16,0.16,0.000902419832,-40.0,2.5
17,0.17,0.17,0.000900166421,-40.0,2.5
18,0.18,0.18,0.00091460132,-40.0,2.5
19,0.19,0.19,0.00091627901,-40.0,2.5
20,0.2,0.2,0.000923644187,-40.0,2.5
21,0.21,0.21,0.000937126455,-40.0,2.5
22,0.22,0.22,0.000956635613,-40.0,2.5
23,0.23,0.23,0.000998951323,-40.0,2.5
24,0.24,0.24,0.00105225451,-40.0,2.5
25,0.25,0.25,0.00113339502,-40.0,2.5
26,0.26,0.26,0.0012481579,-40.0,2.5
27,0.27,0.27,0.00141063474,-40.0,2.5
28,0.28,0.28,0.00163328268,-40.0,2.5
29,0.29,0.29,0.00194526101,-40.0,2.5
30,0.3,0.3,0.00237611004,-40.0,2.5
31,0.31,0.31,0.00296358918,-40.0,2.5
32,0.32,0.32,0.0037420797,-40.0,2.5
33,0.33,0.33,0.0047600641,-40.0,2.5
34,0.34,0.34,0.00606423191,-40.0,2.5
35,0.35000000000000003,0.35,0.00770248808,-40.0,2.5
36,0.36,0.36,0.00970508556,-40.0,2.5
37,0.37,0.37,0.0120897373,-40.0,2.5
38,0.38,0.38,0.0148492558,-40.0,2.5
39,0.39,0.39,0.0180198862,-40.0,2.5
40,0.4,0.4,0.0215164339,-40.0,2.5
41,0.41000000000000003,0.41,0.0252974657,-40.0,2.5
42,0.42,0.42,0.0292373427,-40.0,2.5
43,0.43,0.43,0.0329179195,-40.0,2.5
44,0.44,0.44,0.0360095931,-40.0,2.5
45,0.45,0.45,0.0392773137,-40.0,2.5
46,0.46,0.46,0.042939153,-40.0,2.5
47,0.47000000000000003,0.47,0.047169989,-40.0,2.5
48,0.48,0.48,0.0520361256,-40.0,2.5
49,0.49,0.49,0.0575687969,-40.0,2.5
50,0.5,0.5,0.0638466759,-40.0,2.5
51,0.51,0.51,0.0709238442,-40.0,2.5
52,0.52,0.52,0.0787717685,-40.0,2.5
53,0.53,0.53,0.0874303109,-40.0,2.5
54,0.54,0.54,0.0968068307,-40.0,2.5
55,0.55,0.55,0.106912313,-40.0,2.5
56,0.56,0.56,0.116052082,-40.0,2.5
57,0.5700000000000001,0.57,0.123858893,-40.0,2.5
58,0.58,0.58,0.131270531,-40.0,2.5
59,0.59,0.59,0.13867112,-40.0,2.5
60,0.6,0.6,0.146047079,-40.0,2.5
61,0.61,0.61,0.153324462,-40.0,2.5
62,0.62,0.62,0.160629741,-40.0,2.5
63,0.63,0.63,0.168044083,-40.0,2.5
64,0.64,0.64,0.175455066,-40.0,2.5
65,0.65,0.65,0.182947754,-40.0,2.5
66,0.66,0.66,0.190465156,-40.0,2.5
67,0.67,0.67,0.197971816,-40.0,2.5
68,0.68,0.68,0.205279658,-40.0,2.5
69,0.6900000000000001,0.69,0.212582129,-40.0,2.5
70,0.7000000000000001,0.7,0.221409309,-40.0,2.5
71,0.71,0.71,0.229734666,-40.0,2.5
72,0.72,0.72,0.237597592,-40.0,2.5
73,0.73,0.73,0.245571,-40.0,2.5
74,0.74,0.74,0.253564228,-40.0,2.5
75,0.75,0.75,0.261688384,-40.0,2.5
76,0.76,0.76,0.269755107,-40.0,2.5
77,0.77,0.77,0.277922691,-40.0,2.5
78,0.78,0.78,0.286062622,-40.0,2.5
79,0.79,0.79,0.294282803,-40.0,2.5
80,0.8,0.8,0.302600273,-40.0,2.5
81,0.81,0.81,0.310895183,-40.0,2.5
82,0.8200000000000001,0.82,0.319194854,-40.0,2.5
83,0.8300000000000001,0.83,0.327558835,-40.0,2.5
84,0.84,0.84,0.335939584,-40.0,2.5
85,0.85,0.85,0.344370149,-40.0,2.5
86,0.86,0.86,0.352836724,-40.0,2.5
87,0.87,0.87,0.361244288,-40.0,2.5
88,0.88,0.88,0.369727627,-40.0,2.5
89,0.89,0.89,0.378268893,-40.0,2.5
90,0.9,0.9,0.386805212,-40.0,2.5
91,0.91,0.91,0.395379572,-40.0,2.5
92,0.92,0.92,0.4039554,-40.0,2.5
93,0.93,0.93,0.412505232,-40.0,2.5
94,0.9400000000000001,0.94,0.421137463,-40.0,2.5
95,0.9500000000000001,0.95,0.429782826,-40.0,2.5
96,0.96,0.96,0.438320744,-40.0,2.5
97,0.97,0.97,0.447051485,-40.0,2.5
98,0.98,0.98,0.455705545,-40.0,2.5
99,0.99,0.99,0.464394096,-40.0,2.5
100,1.0,1.0,0.473074341,-40.0,2.5
101,1.01,1.01,0.481625058,-40.0,2.5
102,1.02,1.02,0.490347708,-40.0,2.5
103,1.03,1.03,0.499063225,-40.0,2.5
104,1.04,1.04,0.507756758,-40.0,2.5
105,1.05,1.05,0.516484425,-40.0,2.5
106,1.06,1.06,0.525182185,-40.0,2.5
107,1.07,1.07,0.53385928,-40.0,2.5
108,1.08,1.08,0.542435438,-40.0,2.5
109,1.09,1.09,0.550849172,-40.0,2.5
110,1.1,1.1,0.558944828,-40.0,2.5
111,1.11,1.11,0.566492455,-40.0,2.5
112,1.12,1.12,0.573352347,-40.0,2.5
113,1.1300000000000001,1.13,0.578763579,-40.0,2.5
114,1.1400000000000001,1.14,0.582790289,-40.0,2.5
115,1.1500000000000001,1.15,0.58540534,-40.0,2.5
116,1.16,1.16,0.587451513,-40.0,2.5
117,1.17,1.17,0.588809194,-40.0,2.5
118,1.18,1.18,0.589961682,-40.0,2.5
119,1.19,1.19,0.590766469,-40.0,2.5
120,1.2,1.2,0.591582643,-40.0,2.5
121,1.21,1.21,0.592251295,-40.0,2.5
122,1.22,1.22,0.592865898,-40.0,2.5
123,1.23,1.23,0.593230165,-40.0,2.5
124,1.24,1.24,0.593564511,-40.0,2.5
125,1.25,1.25,0.593917937,-40.0,2.5
126,1.26,1.26,0.594283705,-40.0,2.5
127,1.27,1.27,0.594604627,-40.0,2.5
128,1.28,1.28,0.595072612,-40.0,2.5
129,1.29,1.29,0.595174861,-40.0,2.5
130,1.3,1.3,0.595313803,-40.0,2.5
131,1.31,1.31,0.595368038,-40.0,2.5
132,1.32,1.32,0.595493678,-40.0,2.5
