,Vin,Vin_real,Vout,temp
0,1.33,1.33,0.559708256,30.0
1,1.32,1.32,0.559121042,30.0
2,1.31,1.31,0.558380784,30.0
3,1.3,1.3,0.55772307,30.0
4,1.29,1.29,0.556696957,30.0
5,1.28,1.28,0.555909436,30.0
6,1.27,1.27,0.555087953,30.0
7,1.26,1.26,0.554189555,30.0
8,1.25,1.25,0.553384038,30.0
9,1.24,1.24,0.552397529,30.0
10,1.23,1.23,0.551353536,30.0
11,1.22,1.22,0.550448213,30.0
12,1.21,1.21,0.549282152,30.0
13,1.2,1.2,0.548261982,30.0
14,1.19,1.19,0.547307455,30.0
15,1.18,1.18,0.546016797,30.0
16,1.17,1.17,0.544533749,30.0
17,1.16,1.16,0.543625815,30.0
18,1.15,1.15,0.542261667,30.0
19,1.14,1.14,0.54066579,30.0
20,1.13,1.13,0.539213936,30.0
21,1.1199999999999999,1.12,0.537654665,30.0
22,1.1099999999999999,1.11,0.535850872,30.0
23,1.0999999999999999,1.1,0.534015996,30.0
24,1.0899999999999999,1.09,0.532136295,30.0
25,1.0799999999999998,1.08,0.52991069,30.0
26,1.0699999999999998,1.07,0.52758083,30.0
27,1.0599999999999998,1.06,0.525048533,30.0
28,1.0499999999999998,1.05,0.5220972,30.0
29,1.0399999999999998,1.04,0.519395234,30.0
30,1.0299999999999998,1.03,0.516258686,30.0
31,1.0199999999999998,1.02,0.512525257,30.0
32,1.0099999999999998,1.01,0.508594322,30.0
33,0.9999999999999998,1.0,0.504368281,30.0
34,0.9899999999999998,0.99,0.499655129,30.0
35,0.9799999999999998,0.98,0.494225368,30.0
36,0.9699999999999998,0.97,0.488416953,30.0
37,0.9599999999999997,0.96,0.482361219,30.0
38,0.9499999999999997,0.95,0.47545222,30.0
39,0.9399999999999997,0.94,0.468088239,30.0
40,0.9299999999999997,0.93,0.460349401,30.0
41,0.9199999999999997,0.92,0.452345254,30.0
42,0.9099999999999997,0.91,0.444167009,30.0
43,0.8999999999999997,0.9,0.435916944,30.0
44,0.8899999999999997,0.89,0.427571088,30.0
45,0.8799999999999997,0.88,0.41922423,30.0
46,0.8699999999999997,0.87,0.410845612,30.0
47,0.8599999999999997,0.86,0.402476027,30.0
48,0.8499999999999996,0.85,0.394089863,30.0
49,0.8399999999999996,0.84,0.385711675,30.0
50,0.8299999999999996,0.83,0.37735181,30.0
51,0.8199999999999996,0.82,0.368982325,30.0
52,0.8099999999999996,0.81,0.36063365,30.0
53,0.7999999999999996,0.8,0.352284539,30.0
54,0.7899999999999996,0.79,0.343955862,30.0
55,0.7799999999999996,0.78,0.335617634,30.0
56,0.7699999999999996,0.77,0.327262143,30.0
57,0.7599999999999996,0.76,0.318875936,30.0
58,0.7499999999999996,0.75,0.310319242,30.0
59,0.7399999999999995,0.74,0.300977978,30.0
60,0.7299999999999995,0.73,0.282911023,30.0
61,0.7199999999999995,0.72,0.116854094,30.0
62,0.7099999999999995,0.71,0.117715792,30.0
63,0.6999999999999995,0.7,0.115484209,30.0
64,0.6899999999999995,0.69,0.111725479,30.0
65,0.6799999999999995,0.68,0.108780536,30.0
66,0.6699999999999995,0.67,0.107219728,30.0
67,0.6599999999999995,0.66,0.105253124,30.0
68,0.6499999999999995,0.65,0.103952311,30.0
69,0.6399999999999995,0.64,0.102767631,30.0
70,0.6299999999999994,0.63,0.101619434,30.0
71,0.6199999999999994,0.62,0.10053165,30.0
72,0.6099999999999994,0.61,0.0994305124,30.0
73,0.5999999999999994,0.6,0.0983358593,30.0
74,0.5899999999999994,0.59,0.097248439,30.0
75,0.5799999999999994,0.58,0.096181662,30.0
76,0.5699999999999994,0.57,0.0950383377,30.0
77,0.5599999999999994,0.56,0.0939102085,30.0
78,0.5499999999999994,0.55,0.0927823209,30.0
79,0.5399999999999994,0.54,0.0916603843,30.0
80,0.5299999999999994,0.53,0.0902835702,30.0
81,0.5199999999999994,0.52,0.0889200814,30.0
82,0.5099999999999993,0.51,0.0873446493,30.0
83,0.49999999999999933,0.5,0.0849617091,30.0
84,0.4899999999999993,0.49,0.0788268056,30.0
85,0.4799999999999993,0.48,0.072325042,30.0
86,0.4699999999999993,0.47,0.0664120641,30.0
87,0.4599999999999993,0.46,0.0611968648,30.0
88,0.4499999999999993,0.45,0.0566058548,30.0
89,0.4399999999999993,0.44,0.0524559483,30.0
90,0.42999999999999927,0.43,0.0488897702,30.0
91,0.41999999999999926,0.42,0.0457781477,30.0
92,0.40999999999999925,0.41,0.0430146759,30.0
93,0.39999999999999925,0.4,0.040804705,30.0
94,0.38999999999999924,0.39,0.0386560649,30.0
95,0.3799999999999992,0.38,0.0368376154,30.0
96,0.3699999999999992,0.37,0.034892806,30.0
97,0.3599999999999992,0.36,0.0325946042,30.0
98,0.3499999999999992,0.35,0.0296541192,30.0
99,0.3399999999999992,0.34,0.0263487593,30.0
100,0.3299999999999992,0.33,0.0230156155,30.0
101,0.3199999999999992,0.32,0.0197581565,30.0
102,0.30999999999999917,0.31,0.0167578751,30.0
103,0.29999999999999916,0.3,0.0140318052,30.0
104,0.28999999999999915,0.29,0.011619118,30.0
105,0.27999999999999914,0.28,0.00949350056,30.0
106,0.26999999999999913,0.27,0.00765131267,30.0
107,0.2599999999999991,0.26,0.00609268937,30.0
108,0.2499999999999991,0.25,0.00479487335,30.0
109,0.2399999999999991,0.24,0.00371945332,30.0
110,0.2299999999999991,0.23,0.00285043036,30.0
111,0.21999999999999909,0.22,0.00214934967,30.0
112,0.20999999999999908,0.21,0.00160990455,30.0
113,0.19999999999999907,0.20001,0.00118767638,30.0
114,0.18999999999999906,0.19,0.000872816461,30.0
115,0.17999999999999905,0.18001,0.000645999256,30.0
116,0.16999999999999904,0.16999,0.000476672216,30.0
117,0.15999999999999903,0.16,0.000351538767,30.0
118,0.14999999999999902,0.15,0.00025519297,30.0
119,0.13999999999999901,0.14001,0.000183795074,30.0
120,0.129999999999999,0.13001,0.0001289755,30.0
121,0.119999999999999,0.12,9.64458927e-05,30.0
122,0.10999999999999899,0.11001,5.81374479e-05,30.0
123,0.09999999999999898,0.09999,3.28068824e-05,30.0
124,0.08999999999999897,0.09001,1.28002389e-05,30.0
125,0.07999999999999896,0.08,-1.51155478e-06,30.0
126,0.06999999999999895,0.07001,-1.37015572e-05,30.0
127,0.05999999999999894,0.05999,-2.40300163e-05,30.0
128,0.049999999999998934,0.05001,-2.88283801e-05,30.0
129,0.039999999999998925,0.04001,-3.05019282e-05,30.0
130,0.029999999999998916,0.03001,-5.32334663e-05,30.0
131,0.019999999999998908,0.02001,-3.92405971e-05,30.0
132,0.009999999999998899,0.00999,-4.79921518e-05,30.0
