,Vin,Vin_real,Vout,temp
0,0.0,1e-05,-4.19811386e-05,-40.0
1,0.01,0.01003,-4.60049715e-05,-40.0
2,0.02,0.02003,-4.08773286e-05,-40.0
3,0.03,0.03,-4.27552093e-05,-40.0
4,0.04,0.04001,-3.97629337e-05,-40.0
5,0.05,0.05002,-3.92431282e-05,-40.0
6,0.06,0.06002,-4.08423527e-05,-40.0
7,0.07,0.06997,-3.71526312e-05,-40.0
8,0.08,0.08003,-3.86370337e-05,-40.0
9,0.09,0.09,-3.50517794e-05,-40.0
10,0.1,0.09998,-3.83613688e-05,-40.0
11,0.11,0.11,-3.5297991e-05,-40.0
12,0.12,0.12003,-3.44500568e-05,-40.0
13,0.13,0.13,-2.96468609e-05,-40.0
14,0.14,0.14,-3.49503035e-05,-40.0
15,0.15,0.14998,-3.26952819e-05,-40.0
16,0.16,0.15998,-2.98005705e-05,-40.0
17,0.17,0.17001,-3.46207942e-05,-40.0
18,0.18,0.18,-2.92342839e-05,-40.0
19,0.19,0.19002,-2.94781944e-05,-40.0
20,0.2,0.20001,-2.64302336e-05,-40.0
21,0.21,0.21,-2.64240208e-05,-40.0
22,0.22,0.22,-2.76072168e-05,-40.0
23,0.23,0.23,-2.66232911e-05,-40.0
24,0.24,0.24,-2.21286649e-05,-40.0
25,0.25,0.25,-2.46335797e-05,-40.0
26,0.26,0.26,-2.07033992e-05,-40.0
27,0.27,0.27,-2.06624407e-05,-40.0
28,0.28,0.28,-1.78461948e-05,-40.0
29,0.29,0.29,-1.49873797e-05,-40.0
30,0.3,0.3,-1.45032404e-05,-40.0
31,0.31,0.31,-1.06825895e-05,-40.0
32,0.32,0.32,-1.10376404e-05,-40.0
33,0.33,0.33,-4.3650775e-06,-40.0
34,0.34,0.34,-2.78357104e-06,-40.0
35,0.35000000000000003,0.35,5.00154584e-06,-40.0
36,0.36,0.36,2.1272447e-05,-40.0
37,0.37,0.37,5.6645452e-05,-40.0
38,0.38,0.38,0.000171429272,-40.0
39,0.39,0.39,0.000642153064,-40.0
40,0.4,0.4,0.00191998774,-40.0
41,0.41000000000000003,0.41,0.00394722063,-40.0
42,0.42,0.42,0.00667241745,-40.0
43,0.43,0.43,0.00985534662,-40.0
44,0.44,0.44,0.0135085254,-40.0
45,0.45,0.45,0.0174824413,-40.0
46,0.46,0.46,0.021985107,-40.0
47,0.47000000000000003,0.47,0.0268660104,-40.0
48,0.48,0.48,0.0322424008,-40.0
49,0.49,0.49,0.0381997035,-40.0
50,0.5,0.5,0.0447276148,-40.0
51,0.51,0.51,0.0518953529,-40.0
52,0.52,0.52,0.0597619588,-40.0
53,0.53,0.53,0.0683923292,-40.0
54,0.54,0.54,0.0777462921,-40.0
55,0.55,0.55,0.0878371882,-40.0
56,0.56,0.56,0.0987843323,-40.0
57,0.5700000000000001,0.57,0.110569478,-40.0
58,0.58,0.58,0.123111581,-40.0
59,0.59,0.59,0.13538886,-40.0
60,0.6,0.6,0.142489133,-40.0
61,0.61,0.61,0.146748848,-40.0
62,0.62,0.62,0.149679973,-40.0
63,0.63,0.63,0.152254331,-40.0
64,0.64,0.64,0.154526238,-40.0
65,0.65,0.65,0.156632041,-40.0
66,0.66,0.66,0.158642066,-40.0
67,0.67,0.67,0.160582296,-40.0
68,0.68,0.68,0.162402634,-40.0
69,0.6900000000000001,0.69,0.164182683,-40.0
70,0.7000000000000001,0.7,0.165888653,-40.0
71,0.71,0.71,0.167640064,-40.0
72,0.72,0.72,0.169486752,-40.0
73,0.73,0.73,0.171153342,-40.0
74,0.74,0.74,0.172859758,-40.0
75,0.75,0.75,0.174293427,-40.0
76,0.76,0.76,0.175833357,-40.0
77,0.77,0.77,0.177175271,-40.0
78,0.78,0.78,0.178589728,-40.0
79,0.79,0.79,0.180033493,-40.0
80,0.8,0.8,0.181483451,-40.0
81,0.81,0.81,0.183110323,-40.0
82,0.8200000000000001,0.82,0.184778696,-40.0
83,0.8300000000000001,0.83,0.186456521,-40.0
84,0.84,0.84,0.188434579,-40.0
85,0.85,0.85,0.190536891,-40.0
86,0.86,0.86,0.190671635,-40.0
87,0.87,0.87,0.19161873,-40.0
88,0.88,0.88,0.372236948,-40.0
89,0.89,0.89,0.380817019,-40.0
90,0.9,0.9,0.389388246,-40.0
91,0.91,0.91,0.398026573,-40.0
92,0.92,0.92,0.406616858,-40.0
93,0.93,0.93,0.415136417,-40.0
94,0.9400000000000001,0.94,0.423767469,-40.0
95,0.9500000000000001,0.95,0.4324184,-40.0
96,0.96,0.96,0.44105373,-40.0
97,0.97,0.97,0.449666584,-40.0
98,0.98,0.98,0.458262174,-40.0
99,0.99,0.99,0.466862535,-40.0
100,1.0,1.0,0.475500431,-40.0
101,1.01,1.01,0.484072633,-40.0
102,1.02,1.02,0.49252419,-40.0
103,1.03,1.03,0.50080969,-40.0
104,1.04,1.04,0.508716432,-40.0
105,1.05,1.05,0.515938064,-40.0
106,1.06,1.06,0.522224098,-40.0
107,1.07,1.07,0.527204345,-40.0
108,1.08,1.08,0.531591362,-40.0
109,1.09,1.09,0.535107363,-40.0
110,1.1,1.1,0.537672003,-40.0
111,1.11,1.11,0.540583006,-40.0
112,1.12,1.12,0.542589707,-40.0
113,1.1300000000000001,1.13,0.544715293,-40.0
114,1.1400000000000001,1.14,0.546143406,-40.0
115,1.1500000000000001,1.15,0.547632265,-40.0
116,1.16,1.16,0.549220584,-40.0
117,1.17,1.17,0.550312388,-40.0
118,1.18,1.18,0.551597264,-40.0
119,1.19,1.19,0.552431984,-40.0
120,1.2,1.2,0.553573805,-40.0
121,1.21,1.21,0.554537385,-40.0
122,1.22,1.22,0.555206207,-40.0
123,1.23,1.23,0.556271704,-40.0
124,1.24,1.24,0.556758543,-40.0
125,1.25,1.25,0.557331003,-40.0
126,1.26,1.26,0.558085934,-40.0
127,1.27,1.27,0.558697969,-40.0
128,1.28,1.28,0.559174212,-40.0
129,1.29,1.29,0.559540849,-40.0
130,1.3,1.3,0.560247324,-40.0
131,1.31,1.31,0.560682598,-40.0
132,1.32,1.32,0.561358556,-40.0
