,Vin,Vin_real,Vout,temp
0,0.0,0.0,-0.000163219643,30.0
1,0.01,0.01,-0.000173731611,30.0
2,0.02,0.02,-0.000166530373,30.0
3,0.03,0.03,-0.000168630926,30.0
4,0.04,0.04,-0.000148851676,30.0
5,0.05,0.05,-0.000148244288,30.0
6,0.06,0.06,-0.000148771151,30.0
7,0.07,0.07,-0.000141342142,30.0
8,0.08,0.08,-0.000132546507,30.0
9,0.09,0.09,-0.000124089078,30.0
10,0.1,0.1,-0.000109378305,30.0
11,0.11,0.11,-9.07033987e-05,30.0
12,0.12,0.12,-6.97185748e-05,30.0
13,0.13,0.13,-3.68252486e-05,30.0
14,0.14,0.14,5.67586457e-06,30.0
15,0.15,0.15,6.12519426e-05,30.0
16,0.16,0.16,0.000139485465,30.0
17,0.17,0.17,0.000254746698,30.0
18,0.18,0.18,0.000407136875,30.0
19,0.19,0.19,0.000604722302,30.0
20,0.2,0.2,0.000867404167,30.0
21,0.21,0.21,0.00120562542,30.0
22,0.22,0.22,0.00164614337,30.0
23,0.23,0.23,0.00221179032,30.0
24,0.24,0.24,0.00292751063,30.0
25,0.25,0.25,0.00382866629,30.0
26,0.26,0.26,0.00495473298,30.0
27,0.27,0.27,0.0063202282,30.0
28,0.28,0.28,0.00796410766,30.0
29,0.29,0.29,0.0099035002,30.0
30,0.3,0.3,0.0121395447,30.0
31,0.31,0.31,0.0147008666,30.0
32,0.32,0.32,0.0175852227,30.0
33,0.33,0.33,0.0208038083,30.0
34,0.34,0.34,0.0243116169,30.0
35,0.35000000000000003,0.35,0.0280488688,30.0
36,0.36,0.36,0.0319216053,30.0
37,0.37,0.37,0.0357661857,30.0
38,0.38,0.38,0.038906524,30.0
39,0.39,0.39,0.0408791964,30.0
40,0.4,0.4,0.0422634678,30.0
41,0.41000000000000003,0.41,0.0435301127,30.0
42,0.42,0.42,0.0450674208,30.0
43,0.43,0.43,0.0469628099,30.0
44,0.44,0.44,0.0493868527,30.0
45,0.45,0.45,0.0522759299,30.0
46,0.46,0.46,0.0557943056,30.0
47,0.47000000000000003,0.47,0.0599947468,30.0
48,0.48,0.48,0.0649244595,30.0
49,0.49,0.49,0.0705806714,30.0
50,0.5,0.5,0.0770436406,30.0
51,0.51,0.51,0.0839078707,30.0
52,0.52,0.52,0.0879804175,30.0
53,0.53,0.53,0.0901820639,30.0
54,0.54,0.54,0.092019636,30.0
55,0.55,0.55,0.0939033927,30.0
56,0.56,0.56,0.0957985103,30.0
57,0.5700000000000001,0.57,0.0979138132,30.0
58,0.58,0.58,0.100672778,30.0
59,0.59,0.59,0.105317598,30.0
60,0.6,0.6,0.113011905,30.0
61,0.61,0.61,0.122187013,30.0
62,0.62,0.62,0.133232381,30.0
63,0.63,0.63,0.146044414,30.0
64,0.64,0.64,0.160834065,30.0
65,0.65,0.65,0.180432361,30.0
66,0.66,0.66,0.207274349,30.0
67,0.67,0.67,0.234580476,30.0
68,0.68,0.68,0.248886377,30.0
69,0.6900000000000001,0.69,0.257570712,30.0
70,0.7000000000000001,0.7,0.265857421,30.0
71,0.71,0.71,0.274000318,30.0
72,0.72,0.72,0.282144102,30.0
73,0.73,0.73,0.290305071,30.0
74,0.74,0.74,0.298488287,30.0
75,0.75,0.75,0.306680196,30.0
76,0.76,0.76,0.314935149,30.0
77,0.77,0.77,0.323161911,30.0
78,0.78,0.78,0.331458217,30.0
79,0.79,0.79,0.339746746,30.0
80,0.8,0.8,0.348058863,30.0
81,0.81,0.81,0.356420509,30.0
82,0.8200000000000001,0.82,0.364791841,30.0
83,0.8300000000000001,0.83,0.37320376,30.0
84,0.84,0.84,0.381571706,30.0
85,0.85,0.85,0.389963096,30.0
86,0.86,0.86,0.398424609,30.0
87,0.87,0.87,0.406948914,30.0
88,0.88,0.88,0.41540549,30.0
89,0.89,0.89,0.423875033,30.0
90,0.9,0.9,0.43239045,30.0
91,0.91,0.91,0.440910091,30.0
92,0.92,0.92,0.449467774,30.0
93,0.93,0.93,0.458028736,30.0
94,0.9400000000000001,0.94,0.462596457,30.0
95,0.9500000000000001,0.95,0.475226204,30.0
96,0.96,0.96,0.48194879,30.0
97,0.97,0.97,0.492417952,30.0
98,0.98,0.98,0.497562296,30.0
99,0.99,0.99,0.505787743,30.0
100,1.0,1.0,0.518182055,30.0
101,1.01,1.01,0.525959844,30.0
102,1.02,1.02,0.534338366,30.0
103,1.03,1.03,0.542525784,30.0
104,1.04,1.04,0.550509467,30.0
105,1.05,1.05,0.55775343,30.0
106,1.06,1.06,0.564309181,30.0
107,1.07,1.07,0.569234667,30.0
108,1.08,1.08,0.575337356,30.0
109,1.09,1.09,0.577464059,30.0
110,1.1,1.1,0.583386554,30.0
111,1.11,1.11,0.58656767,30.0
112,1.12,1.12,0.589171017,30.0
113,1.1300000000000001,1.13,0.591478444,30.0
114,1.1400000000000001,1.14,0.593536431,30.0
115,1.1500000000000001,1.15,0.595400149,30.0
116,1.16,1.16,0.596999779,30.0
117,1.17,1.17,0.598483025,30.0
118,1.18,1.18,0.59977019,30.0
119,1.19,1.19,0.600882383,30.0
120,1.2,1.2,0.602068073,30.0
121,1.21,1.21,0.602899749,30.0
122,1.22,1.22,0.60387069,30.0
123,1.23,1.23,0.604629621,30.0
124,1.24,1.24,0.605470744,30.0
125,1.25,1.25,0.606325676,30.0
126,1.26,1.26,0.606918398,30.0
127,1.27,1.27,0.607477888,30.0
128,1.28,1.28,0.608062642,30.0
129,1.29,1.29,0.608635316,30.0
130,1.3,1.3,0.609213897,30.0
131,1.31,1.31,0.609695476,30.0
132,1.32,1.32,0.610276439,30.0
