,Vin,Vin_real,Vout,temp
0,0.0,0.0,-0.000159388952,30.0
1,0.01,0.01,-0.000158434156,30.0
2,0.02,0.02,-0.000156934089,30.0
3,0.03,0.02999,-0.000158967921,30.0
4,0.04,0.04001,-0.000155657192,30.0
5,0.05,0.05,-0.00014992611,30.0
6,0.06,0.06001,-0.000143336862,30.0
7,0.07,0.07,-0.00014426405,30.0
8,0.08,0.08001,-0.000132442975,30.0
9,0.09,0.08999,-0.000118489137,30.0
10,0.1,0.09999,-0.000107622859,30.0
11,0.11,0.11001,-9.35907964e-05,30.0
12,0.12,0.12001,-7.4669714e-05,30.0
13,0.13,0.13001,-4.63087969e-05,30.0
14,0.14,0.13999,-1.39354324e-05,30.0
15,0.15,0.15001,2.0467163e-05,30.0
16,0.16,0.16,6.40657174e-05,30.0
17,0.17,0.17,0.000115875524,30.0
18,0.18,0.18,0.000177601414,30.0
19,0.19,0.19,0.000243477795,30.0
20,0.2,0.2,0.000312209363,30.0
21,0.21,0.21,0.000386738733,30.0
22,0.22,0.22,0.000465204627,30.0
23,0.23,0.23,0.000540928069,30.0
24,0.24,0.24,0.0006111505,30.0
25,0.25,0.25,0.000678515443,30.0
26,0.26,0.26,0.000739148494,30.0
27,0.27,0.27,0.000788873853,30.0
28,0.28,0.28,0.000838845388,30.0
29,0.29,0.29,0.000887717182,30.0
30,0.3,0.3,0.000939296918,30.0
31,0.31,0.31,0.000976154376,30.0
32,0.32,0.32,0.00102820576,30.0
33,0.33,0.33,0.00108097726,30.0
34,0.34,0.34,0.00114508209,30.0
35,0.35000000000000003,0.35,0.00121856694,30.0
36,0.36,0.36,0.00132692143,30.0
37,0.37,0.37,0.00148594917,30.0
38,0.38,0.38,0.00170870672,30.0
39,0.39,0.39,0.00204641261,30.0
40,0.4,0.4,0.00271530416,30.0
41,0.41000000000000003,0.41,0.00415818164,30.0
42,0.42,0.42,0.00737605634,30.0
43,0.43,0.43,0.0124814862,30.0
44,0.44,0.44,0.0185681826,30.0
45,0.45,0.45,0.0252414141,30.0
46,0.46,0.46,0.0321975876,30.0
47,0.47000000000000003,0.47,0.0395175825,30.0
48,0.48,0.48,0.0472969128,30.0
49,0.49,0.49,0.0554451652,30.0
50,0.5,0.5,0.0640329117,30.0
51,0.51,0.51,0.0720756256,30.0
52,0.52,0.52,0.075701898,30.0
53,0.53,0.53,0.0781436517,30.0
54,0.54,0.54,0.0803497685,30.0
55,0.55,0.55,0.0823890719,30.0
56,0.56,0.56,0.0843808955,30.0
57,0.5700000000000001,0.57,0.086261461,30.0
58,0.58,0.58,0.0880751264,30.0
59,0.59,0.59,0.0899554964,30.0
60,0.6,0.6,0.0916853283,30.0
61,0.61,0.61,0.0934378637,30.0
62,0.62,0.62,0.0953259779,30.0
63,0.63,0.63,0.0970329752,30.0
64,0.64,0.64,0.0989045726,30.0
65,0.65,0.65,0.100825019,30.0
66,0.66,0.66,0.102617044,30.0
67,0.67,0.67,0.104635157,30.0
68,0.68,0.68,0.106696877,30.0
69,0.6900000000000001,0.69,0.108789074,30.0
70,0.7000000000000001,0.7,0.110772081,30.0
71,0.71,0.71,0.112787263,30.0
72,0.72,0.72,0.114663752,30.0
73,0.73,0.73,0.117050917,30.0
74,0.74,0.74,0.120203309,30.0
75,0.75,0.75,0.306644118,30.0
76,0.76,0.76,0.314892059,30.0
77,0.77,0.77,0.323159141,30.0
78,0.78,0.78,0.331449605,30.0
79,0.79,0.79,0.339757852,30.0
80,0.8,0.8,0.348082848,30.0
81,0.81,0.81,0.356434941,30.0
82,0.8200000000000001,0.82,0.364829292,30.0
83,0.8300000000000001,0.83,0.373217415,30.0
84,0.84,0.84,0.381613418,30.0
85,0.85,0.85,0.390038918,30.0
86,0.86,0.86,0.398473403,30.0
87,0.87,0.87,0.406938142,30.0
88,0.88,0.88,0.415373781,30.0
89,0.89,0.89,0.423873413,30.0
90,0.9,0.9,0.432381764,30.0
91,0.91,0.91,0.440895739,30.0
92,0.92,0.92,0.449416296,30.0
93,0.93,0.93,0.457932483,30.0
94,0.9400000000000001,0.94,0.466457064,30.0
95,0.9500000000000001,0.95,0.474957153,30.0
96,0.96,0.96,0.483457508,30.0
97,0.97,0.97,0.49190356,30.0
98,0.98,0.98,0.500270109,30.0
99,0.99,0.99,0.508622978,30.0
100,1.0,1.0,0.516764166,30.0
101,1.01,1.01,0.524666718,30.0
102,1.02,1.02,0.532229314,30.0
103,1.03,1.03,0.539164874,30.0
104,1.04,1.04,0.545413569,30.0
105,1.05,1.05,0.550989605,30.0
106,1.06,1.06,0.556016611,30.0
107,1.07,1.07,0.560482187,30.0
108,1.08,1.08,0.564206962,30.0
109,1.09,1.09,0.567538953,30.0
110,1.1,1.1,0.570437348,30.0
111,1.11,1.11,0.572832733,30.0
112,1.12,1.12,0.575309778,30.0
113,1.1300000000000001,1.13,0.57731383,30.0
114,1.1400000000000001,1.14,0.579227038,30.0
115,1.1500000000000001,1.15,0.580912613,30.0
116,1.16,1.16,0.582273279,30.0
117,1.17,1.17,0.58370821,30.0
118,1.18,1.18,0.58481987,30.0
119,1.19,1.19,0.586054684,30.0
120,1.2,1.2,0.587159596,30.0
121,1.21,1.21,0.588068558,30.0
122,1.22,1.22,0.589116276,30.0
123,1.23,1.23,0.589967394,30.0
124,1.24,1.24,0.590782567,30.0
125,1.25,1.25,0.591714674,30.0
126,1.26,1.26,0.592404233,30.0
127,1.27,1.27,0.593066736,30.0
128,1.28,1.28,0.593556643,30.0
129,1.29,1.29,0.59417698,30.0
130,1.3,1.3,0.594758772,30.0
131,1.31,1.31,0.595372757,30.0
132,1.32,1.32,0.596125896,30.0
