,Vin,Vin_real,Vout,temp,VCC
0,0.0,0.0,0.00119682602,30.0,2.5
1,0.01,0.01,0.00119863464,30.0,2.5
2,0.02,0.02,0.00120379219,30.0,2.5
3,0.03,0.03,0.0012060693,30.0,2.5
4,0.04,0.04,0.0012085137,30.0,2.5
5,0.05,0.05,0.00120966054,30.0,2.5
6,0.06,0.06,0.00121308472,30.0,2.5
7,0.07,0.07,0.00121717045,30.0,2.5
8,0.08,0.08,0.00125869437,30.0,2.5
9,0.09,0.09,0.00123703213,30.0,2.5
10,0.1,0.1,0.00124814502,30.0,2.5
11,0.11,0.11,0.00126698158,30.0,2.5
12,0.12,0.12,0.00128924808,30.0,2.5
13,0.13,0.13,0.00131328845,30.0,2.5
14,0.14,0.14,0.00134901121,30.0,2.5
15,0.15,0.15,0.00139702522,30.0,2.5
16,0.16,0.16,0.00145166716,30.0,2.5
17,0.17,0.17,0.00152751803,30.0,2.5
18,0.18,0.18,0.00163996376,30.0,2.5
19,0.19,0.19,0.00181712539,30.0,2.5
20,0.2,0.2,0.00210028615,30.0,2.5
21,0.21,0.21,0.00240805265,30.0,2.5
22,0.22,0.22,0.00281845507,30.0,2.5
23,0.23,0.23,0.0033444476,30.0,2.5
24,0.24,0.24,0.00400931127,30.0,2.5
25,0.25,0.25,0.00483958054,30.0,2.5
26,0.26,0.26,0.00588504514,30.0,2.5
27,0.27,0.27,0.00717033013,30.0,2.5
28,0.28,0.28,0.00872908989,30.0,2.5
29,0.29,0.29,0.0105854338,30.0,2.5
30,0.3,0.3,0.012762274,30.0,2.5
31,0.31,0.31,0.0152739788,30.0,2.5
32,0.32,0.32,0.0181087366,30.0,2.5
33,0.33,0.33,0.0212956636,30.0,2.5
34,0.34,0.34,0.024780271,30.0,2.5
35,0.35000000000000003,0.35,0.0286122302,30.0,2.5
36,0.36,0.36,0.0327320717,30.0,2.5
37,0.37,0.37,0.0370836926,30.0,2.5
38,0.38,0.38,0.0417356274,30.0,2.5
39,0.39,0.39,0.0463483617,30.0,2.5
40,0.4,0.4,0.050818968,30.0,2.5
41,0.41000000000000003,0.41,0.054831387,30.0,2.5
42,0.42,0.42,0.0584415877,30.0,2.5
43,0.43,0.43,0.0618854479,30.0,2.5
44,0.44,0.44,0.0656096696,30.0,2.5
45,0.45,0.45,0.0695503949,30.0,2.5
46,0.46,0.46,0.0742867445,30.0,2.5
47,0.47000000000000003,0.47,0.079372837,30.0,2.5
48,0.48,0.48,0.0849025852,30.0,2.5
49,0.49,0.49,0.0908690949,30.0,2.5
50,0.5,0.5,0.0976448235,30.0,2.5
51,0.51,0.51,0.104251816,30.0,2.5
52,0.52,0.52,0.107487017,30.0,2.5
53,0.53,0.53,0.110022721,30.0,2.5
54,0.54,0.54,0.112586577,30.0,2.5
55,0.55,0.55,0.11602385,30.0,2.5
56,0.56,0.56,0.12298074,30.0,2.5
57,0.5700000000000001,0.57,0.133367206,30.0,2.5
58,0.58,0.58,0.144776161,30.0,2.5
59,0.59,0.59,0.156805094,30.0,2.5
60,0.6,0.6,0.170390229,30.0,2.5
61,0.61,0.61,0.184927224,30.0,2.5
62,0.62,0.62,0.199147761,30.0,2.5
63,0.63,0.63,0.210288262,30.0,2.5
64,0.64,0.64,0.218991626,30.0,2.5
65,0.65,0.65,0.227038063,30.0,2.5
66,0.66,0.66,0.235145019,30.0,2.5
67,0.67,0.67,0.243068383,30.0,2.5
68,0.68,0.68,0.250871653,30.0,2.5
69,0.6900000000000001,0.69,0.25848861,30.0,2.5
70,0.7000000000000001,0.7,0.266195886,30.0,2.5
71,0.71,0.71,0.274090169,30.0,2.5
72,0.72,0.72,0.281871318,30.0,2.5
73,0.73,0.73,0.289794157,30.0,2.5
74,0.74,0.74,0.297806162,30.0,2.5
75,0.75,0.75,0.305801402,30.0,2.5
76,0.76,0.76,0.313933393,30.0,2.5
77,0.77,0.77,0.322092212,30.0,2.5
78,0.78,0.78,0.330296344,30.0,2.5
79,0.79,0.79,0.338526666,30.0,2.5
80,0.8,0.8,0.346818036,30.0,2.5
81,0.81,0.81,0.355123155,30.0,2.5
82,0.8200000000000001,0.82,0.36346063,30.0,2.5
83,0.8300000000000001,0.83,0.371816283,30.0,2.5
84,0.84,0.84,0.38017036,30.0,2.5
85,0.85,0.85,0.388582573,30.0,2.5
86,0.86,0.86,0.396980278,30.0,2.5
87,0.87,0.87,0.405457636,30.0,2.5
88,0.88,0.88,0.41389603,30.0,2.5
89,0.89,0.89,0.422368421,30.0,2.5
90,0.9,0.9,0.430894849,30.0,2.5
91,0.91,0.91,0.439419822,30.0,2.5
92,0.92,0.92,0.447945945,30.0,2.5
93,0.93,0.93,0.456489333,30.0,2.5
94,0.9400000000000001,0.94,0.465023705,30.0,2.5
95,0.9500000000000001,0.95,0.473602739,30.0,2.5
96,0.96,0.96,0.482178913,30.0,2.5
97,0.97,0.97,0.490784932,30.0,2.5
98,0.98,0.98,0.499347759,30.0,2.5
99,0.99,0.99,0.508021159,30.0,2.5
100,1.0,1.0,0.516602488,30.0,2.5
101,1.01,1.01,0.525227151,30.0,2.5
102,1.02,1.02,0.53376951,30.0,2.5
103,1.03,1.03,0.542377383,30.0,2.5
104,1.04,1.04,0.550967588,30.0,2.5
105,1.05,1.05,0.559476513,30.0,2.5
106,1.06,1.06,0.5680124,30.0,2.5
107,1.07,1.07,0.576461862,30.0,2.5
108,1.08,1.08,0.584796739,30.0,2.5
109,1.09,1.09,0.592851219,30.0,2.5
110,1.1,1.1,0.600420581,30.0,2.5
111,1.11,1.11,0.60716746,30.0,2.5
112,1.12,1.12,0.612625325,30.0,2.5
113,1.1300000000000001,1.13,0.616818025,30.0,2.5
114,1.1400000000000001,1.14,0.619907599,30.0,2.5
115,1.1500000000000001,1.15,0.621908435,30.0,2.5
116,1.16,1.16,0.623295214,30.0,2.5
117,1.17,1.17,0.624462142,30.0,2.5
118,1.18,1.18,0.625404617,30.0,2.5
119,1.19,1.19,0.625961439,30.0,2.5
120,1.2,1.2,0.626239616,30.0,2.5
121,1.21,1.21,0.626604639,30.0,2.5
122,1.22,1.22,0.627059068,30.0,2.5
123,1.23,1.23,0.627216948,30.0,2.5
124,1.24,1.24,0.627463033,30.0,2.5
125,1.25,1.25,0.627628057,30.0,2.5
126,1.26,1.26,0.627767702,30.0,2.5
127,1.27,1.27,0.627844884,30.0,2.5
128,1.28,1.28,0.627839615,30.0,2.5
129,1.29,1.29,0.627791103,30.0,2.5
130,1.3,1.3,0.627764624,30.0,2.5
131,1.31,1.31,0.627699445,30.0,2.5
132,1.32,1.32,0.627499385,30.0,2.5
