,Vin,Vin_real,Vout,temp
0,0.0,0.00066,0.00777869953,-40.0
1,0.01,0.01077,0.00778258852,-40.0
2,0.02,0.02071,0.00778287109,-40.0
3,0.03,0.03088,0.00778437804,-40.0
4,0.04,0.04074,0.00778679091,-40.0
5,0.05,0.05073,0.0077853928,-40.0
6,0.06,0.06061,0.00779056416,-40.0
7,0.07,0.07058,0.00780105139,-40.0
8,0.08,0.08056,0.00780645125,-40.0
9,0.09,0.09048,0.00782434853,-40.0
10,0.1,0.10049,0.00783397172,-40.0
11,0.11,0.11055,0.00785514545,-40.0
12,0.12,0.12074,0.00787602258,-40.0
13,0.13,0.1307,0.00790637264,-40.0
14,0.14,0.14075,0.00793987098,-40.0
15,0.15,0.15081,0.00798401901,-40.0
16,0.16,0.16096,0.00803130498,-40.0
17,0.17,0.17077,0.00809862542,-40.0
18,0.18,0.18089,0.0081624163,-40.0
19,0.19,0.1908,0.00824801877,-40.0
20,0.2,0.20069,0.0083289699,-40.0
21,0.21,0.21073,0.00842140508,-40.0
22,0.22,0.2205,0.00850776504,-40.0
23,0.23,0.2305,0.00861332513,-40.0
24,0.24,0.2404,0.00871357534,-40.0
25,0.25,0.2503,0.0088106959,-40.0
26,0.26,0.2603,0.00892522937,-40.0
27,0.27,0.2702,0.00902451014,-40.0
28,0.28,0.2801,0.00914691617,-40.0
29,0.29,0.2901,0.00928160631,-40.0
30,0.3,0.3001,0.00945564888,-40.0
31,0.31,0.3102,0.00963502342,-40.0
32,0.32,0.3204,0.0098407304,-40.0
33,0.33,0.3306,0.0100742446,-40.0
34,0.34,0.3405,0.0103720478,-40.0
35,0.35000000000000003,0.3506,0.0107652444,-40.0
36,0.36,0.3606,0.0112374287,-40.0
37,0.37,0.3708,0.0118386924,-40.0
38,0.38,0.3809,0.0125812223,-40.0
39,0.39,0.391,0.0135762285,-40.0
40,0.4,0.401,0.0150226299,-40.0
41,0.41000000000000003,0.4112,0.0174068825,-40.0
42,0.42,0.4213,0.0221396991,-40.0
43,0.43,0.4314,0.0300137657,-40.0
44,0.44,0.4416,0.0390270585,-40.0
45,0.45,0.4519,0.0485846451,-40.0
46,0.46,0.4618,0.058442185,-40.0
47,0.47000000000000003,0.4721,0.0678864507,-40.0
48,0.48,0.4821,0.077749006,-40.0
49,0.49,0.4924,0.0881049872,-40.0
50,0.5,0.5023,0.098030944,-40.0
51,0.51,0.5122,0.108128049,-40.0
52,0.52,0.5218,0.117898588,-40.0
53,0.53,0.5314,0.12817116,-40.0
54,0.54,0.5411,0.137328422,-40.0
55,0.55,0.5507,0.141452605,-40.0
56,0.56,0.5604,0.14527398,-40.0
57,0.5700000000000001,0.5701,0.149000455,-40.0
58,0.58,0.5797,0.15254581,-40.0
59,0.59,0.5895,0.156276994,-40.0
60,0.6,0.5996,0.159542726,-40.0
61,0.61,0.6095,0.16249377,-40.0
62,0.62,0.6196,0.165584449,-40.0
63,0.63,0.6297,0.168698212,-40.0
64,0.64,0.6398,0.171902267,-40.0
65,0.65,0.65,0.175284257,-40.0
66,0.66,0.66,0.178632794,-40.0
67,0.67,0.6701,0.182146171,-40.0
68,0.68,0.6801,0.184448256,-40.0
69,0.6900000000000001,0.6901,0.186075502,-40.0
70,0.7000000000000001,0.7,0.1886765,-40.0
71,0.71,0.7101,0.193161028,-40.0
72,0.72,0.72,0.20222944,-40.0
73,0.73,0.73,0.297768558,-40.0
74,0.74,0.74,0.305655497,-40.0
75,0.75,0.75,0.313647415,-40.0
76,0.76,0.76,0.321700357,-40.0
77,0.77,0.7701,0.329889655,-40.0
78,0.78,0.7801,0.337989309,-40.0
79,0.79,0.7903,0.346218024,-40.0
80,0.8,0.8003,0.354453084,-40.0
81,0.81,0.8102,0.362665461,-40.0
82,0.8200000000000001,0.8201,0.370938474,-40.0
83,0.8300000000000001,0.8301,0.379205213,-40.0
84,0.84,0.8401,0.387498948,-40.0
85,0.85,0.8501,0.395799465,-40.0
86,0.86,0.86,0.403922079,-40.0
87,0.87,0.87,0.412285698,-40.0
88,0.88,0.88,0.420729006,-40.0
89,0.89,0.8901,0.429229428,-40.0
90,0.9,0.9003,0.437770137,-40.0
91,0.91,0.9102,0.44630882,-40.0
92,0.92,0.9202,0.454840657,-40.0
93,0.93,0.9303,0.463370993,-40.0
94,0.9400000000000001,0.9402,0.471923445,-40.0
95,0.9500000000000001,0.9501,0.480394047,-40.0
96,0.96,0.9601,0.488871136,-40.0
97,0.97,0.9701,0.49738918,-40.0
98,0.98,0.98,0.505901337,-40.0
99,0.99,0.99,0.514471903,-40.0
100,1.0,1.0,0.523023718,-40.0
101,1.01,1.01,0.531656373,-40.0
102,1.02,1.02,0.540117912,-40.0
103,1.03,1.03,0.5487057,-40.0
104,1.04,1.0401,0.557126971,-40.0
105,1.05,1.0501,0.565425135,-40.0
106,1.06,1.0602,0.573321053,-40.0
107,1.07,1.0701,0.581059827,-40.0
108,1.08,1.08,0.588118614,-40.0
109,1.09,1.09,0.594065045,-40.0
110,1.1,1.1,0.598986615,-40.0
111,1.11,1.11,0.602871631,-40.0
112,1.12,1.1198,0.60613535,-40.0
113,1.1300000000000001,1.1298,0.608565721,-40.0
114,1.1400000000000001,1.1399,0.610659637,-40.0
115,1.1500000000000001,1.1499,0.612029033,-40.0
116,1.16,1.16,0.613220766,-40.0
117,1.17,1.17,0.614450703,-40.0
118,1.18,1.18,0.615322085,-40.0
119,1.19,1.1901,0.616142394,-40.0
120,1.2,1.2001,0.616905523,-40.0
121,1.21,1.21,0.617533099,-40.0
122,1.22,1.22,0.617900606,-40.0
123,1.23,1.23,0.618422209,-40.0
124,1.24,1.24,0.618647807,-40.0
125,1.25,1.2499,0.618926119,-40.0
126,1.26,1.2599,0.619385462,-40.0
127,1.27,1.2698,0.619609452,-40.0
128,1.28,1.2799,0.620116424,-40.0
129,1.29,1.2898,0.620271549,-40.0
130,1.3,1.2999,0.620637827,-40.0
131,1.31,1.3098,0.621025789,-40.0
132,1.32,1.3197,0.620841155,-40.0
