,Vin,Vin_real,Vout,temp,VCC
0,0.0,0.0,0.00119850233,30.0,2.5
1,0.01,0.01,0.00120383568,30.0,2.5
2,0.02,0.02,0.00120904524,30.0,2.5
3,0.03,0.03,0.00120967113,30.0,2.5
4,0.04,0.04,0.00121562415,30.0,2.5
5,0.05,0.05,0.00121895077,30.0,2.5
6,0.06,0.06,0.00121792289,30.0,2.5
7,0.07,0.07,0.00122600254,30.0,2.5
8,0.08,0.08,0.00123158027,30.0,2.5
9,0.09,0.09,0.00124195475,30.0,2.5
10,0.1,0.1,0.00125641933,30.0,2.5
11,0.11,0.11,0.00127196057,30.0,2.5
12,0.12,0.12,0.00129429863,30.0,2.5
13,0.13,0.13,0.00132054432,30.0,2.5
14,0.14,0.14,0.00135528799,30.0,2.5
15,0.15,0.15,0.00139905865,30.0,2.5
16,0.16,0.16,0.00145261104,30.0,2.5
17,0.17,0.17,0.00151785963,30.0,2.5
18,0.18,0.18,0.00160453254,30.0,2.5
19,0.19,0.19,0.00170517185,30.0,2.5
20,0.2,0.2,0.00182946151,30.0,2.5
21,0.21,0.21,0.00197726759,30.0,2.5
22,0.22,0.22,0.00216147133,30.0,2.5
23,0.23,0.23,0.00237283473,30.0,2.5
24,0.24,0.24,0.00261711961,30.0,2.5
25,0.25,0.25,0.00292020487,30.0,2.5
26,0.26,0.26,0.0032811855,30.0,2.5
27,0.27,0.27,0.00363161885,30.0,2.5
28,0.28,0.28,0.00409175785,30.0,2.5
29,0.29,0.29,0.00459495878,30.0,2.5
30,0.3,0.3,0.00507326198,30.0,2.5
31,0.31,0.31,0.00570650472,30.0,2.5
32,0.32,0.32,0.00621433259,30.0,2.5
33,0.33,0.33,0.00697458552,30.0,2.5
34,0.34,0.34,0.00801000031,30.0,2.5
35,0.35000000000000003,0.35,0.00926858885,30.0,2.5
36,0.36,0.36,0.0108567315,30.0,2.5
37,0.37,0.37,0.0125935743,30.0,2.5
38,0.38,0.38,0.0148992048,30.0,2.5
39,0.39,0.39,0.0176127241,30.0,2.5
40,0.4,0.4,0.0210004074,30.0,2.5
41,0.41000000000000003,0.41,0.0243900689,30.0,2.5
42,0.42,0.42,0.0283353108,30.0,2.5
43,0.43,0.43,0.0330421924,30.0,2.5
44,0.44,0.44,0.0384563908,30.0,2.5
45,0.45,0.45,0.0437117264,30.0,2.5
46,0.46,0.46,0.0500971558,30.0,2.5
47,0.47000000000000003,0.47,0.0567388604,30.0,2.5
48,0.48,0.48,0.063749805,30.0,2.5
49,0.49,0.49,0.0718151385,30.0,2.5
50,0.5,0.5,0.0803109012,30.0,2.5
51,0.51,0.51,0.0887491938,30.0,2.5
52,0.52,0.52,0.0954805622,30.0,2.5
53,0.53,0.53,0.0993290783,30.0,2.5
54,0.54,0.54,0.102666075,30.0,2.5
55,0.55,0.55,0.106576204,30.0,2.5
56,0.56,0.56,0.113716427,30.0,2.5
57,0.5700000000000001,0.57,0.124368362,30.0,2.5
58,0.58,0.58,0.136785524,30.0,2.5
59,0.59,0.59,0.149913976,30.0,2.5
60,0.6,0.6,0.163815616,30.0,2.5
61,0.61,0.61,0.1787611,30.0,2.5
62,0.62,0.62,0.194340548,30.0,2.5
63,0.63,0.63,0.209284285,30.0,2.5
64,0.64,0.64,0.219357483,30.0,2.5
65,0.65,0.65,0.227675769,30.0,2.5
66,0.66,0.66,0.235763402,30.0,2.5
67,0.67,0.67,0.243699248,30.0,2.5
68,0.68,0.68,0.251586962,30.0,2.5
69,0.6900000000000001,0.69,0.259117408,30.0,2.5
70,0.7000000000000001,0.7,0.266797797,30.0,2.5
71,0.71,0.71,0.27470685,30.0,2.5
72,0.72,0.72,0.282569748,30.0,2.5
73,0.73,0.73,0.290361707,30.0,2.5
74,0.74,0.74,0.298343963,30.0,2.5
75,0.75,0.75,0.306446677,30.0,2.5
76,0.76,0.76,0.314552911,30.0,2.5
77,0.77,0.77,0.322687785,30.0,2.5
78,0.78,0.78,0.33088912,30.0,2.5
79,0.79,0.79,0.339158724,30.0,2.5
80,0.8,0.8,0.347488563,30.0,2.5
81,0.81,0.81,0.355777672,30.0,2.5
82,0.8200000000000001,0.82,0.36404542,30.0,2.5
83,0.8300000000000001,0.83,0.372332681,30.0,2.5
84,0.84,0.84,0.380719501,30.0,2.5
85,0.85,0.85,0.389076303,30.0,2.5
86,0.86,0.86,0.397463407,30.0,2.5
87,0.87,0.87,0.405896339,30.0,2.5
88,0.88,0.88,0.41436085,30.0,2.5
89,0.89,0.89,0.422848744,30.0,2.5
90,0.9,0.9,0.431309035,30.0,2.5
91,0.91,0.91,0.439811712,30.0,2.5
92,0.92,0.92,0.448387437,30.0,2.5
93,0.93,0.93,0.456936027,30.0,2.5
94,0.9400000000000001,0.94,0.465447019,30.0,2.5
95,0.9500000000000001,0.95,0.474040214,30.0,2.5
96,0.96,0.96,0.482579405,30.0,2.5
97,0.97,0.97,0.491178562,30.0,2.5
98,0.98,0.98,0.499759983,30.0,2.5
99,0.99,0.99,0.508368869,30.0,2.5
100,1.0,1.0,0.517196963,30.0,2.5
101,1.01,1.01,0.525944366,30.0,2.5
102,1.02,1.02,0.53454846,30.0,2.5
103,1.03,1.03,0.543149596,30.0,2.5
104,1.04,1.04,0.551697562,30.0,2.5
105,1.05,1.05,0.560231263,30.0,2.5
106,1.06,1.06,0.568766268,30.0,2.5
107,1.07,1.07,0.57733373,30.0,2.5
108,1.08,1.08,0.585484591,30.0,2.5
109,1.09,1.09,0.593485153,30.0,2.5
110,1.1,1.1,0.600919104,30.0,2.5
111,1.11,1.11,0.60740106,30.0,2.5
112,1.12,1.12,0.612480502,30.0,2.5
113,1.1300000000000001,1.13,0.616155828,30.0,2.5
114,1.1400000000000001,1.14,0.618903664,30.0,2.5
115,1.1500000000000001,1.15,0.620744893,30.0,2.5
116,1.16,1.16,0.621869005,30.0,2.5
117,1.17,1.17,0.623018817,30.0,2.5
118,1.18,1.18,0.623717734,30.0,2.5
119,1.19,1.19,0.624131753,30.0,2.5
120,1.2,1.2,0.624622878,30.0,2.5
121,1.21,1.21,0.624898423,30.0,2.5
122,1.22,1.22,0.625137496,30.0,2.5
123,1.23,1.23,0.625238698,30.0,2.5
124,1.24,1.24,0.625615348,30.0,2.5
125,1.25,1.25,0.625785692,30.0,2.5
126,1.26,1.26,0.625687702,30.0,2.5
127,1.27,1.27,0.62595065,30.0,2.5
128,1.28,1.28,0.626132368,30.0,2.5
129,1.29,1.29,0.626030671,30.0,2.5
130,1.3,1.3,0.625944576,30.0,2.5
131,1.31,1.31,0.626080953,30.0,2.5
132,1.32,1.32,0.626240441,30.0,2.5
